(1779851079.355585) vcan0 600#00000000 T
(1779851079.355619) vcan0 601#00000000 T
(1779851079.355638) vcan0 602#7F000000 T
(1779851079.419537) vcan0 606#00 T
(1779851079.468624) vcan0 600#00000000 T
(1779851079.468663) vcan0 601#00000000 T
(1779851079.468683) vcan0 602#7F000000 T
(1779851079.484559) vcan0 603#00 T
(1779851079.484590) vcan0 604#00 T
(1779851079.484609) vcan0 607#00000000 T
(1779851079.580574) vcan0 600#00000000 T
(1779851079.580613) vcan0 601#00000000 T
(1779851079.580632) vcan0 602#7F000000 T
(1779851079.692568) vcan0 600#00000000 T
(1779851079.692601) vcan0 601#00000000 T
(1779851079.692618) vcan0 602#7F000000 T
(1779851079.692634) vcan0 603#00 T
(1779851079.692649) vcan0 604#00 T
(1779851079.692663) vcan0 607#00000000 T
(1779851079.804560) vcan0 600#00000000 T
(1779851079.804592) vcan0 601#00000000 T
(1779851079.804612) vcan0 602#7F000000 T
(1779851079.900606) vcan0 603#00 T
(1779851079.900648) vcan0 604#00 T
(1779851079.900671) vcan0 607#00000000 T
(1779851079.916612) vcan0 600#00000000 T
(1779851079.916640) vcan0 601#00000000 T
(1779851079.916657) vcan0 602#7F000000 T
(1779851079.932597) vcan0 606#00 T
(1779851080.027582) vcan0 600#00000000 T
(1779851080.027615) vcan0 601#00000000 T
(1779851080.027634) vcan0 602#7F000000 T
(1779851080.107624) vcan0 603#00 T
(1779851080.107655) vcan0 604#00 T
(1779851080.107674) vcan0 607#00000000 T
(1779851080.139590) vcan0 600#00000000 T
(1779851080.139618) vcan0 601#00000000 T
(1779851080.139634) vcan0 602#7F000000 T
(1779851080.251582) vcan0 600#00000000 T
(1779851080.251617) vcan0 601#00000000 T
(1779851080.251634) vcan0 602#7F000000 T
(1779851080.316029) vcan0 603#00 T
(1779851080.316062) vcan0 604#00 T
(1779851080.316079) vcan0 607#00000000 T
(1779851080.363597) vcan0 600#00000000 T
(1779851080.363631) vcan0 601#00000000 T
(1779851080.363651) vcan0 602#7F000000 T
(1779851080.444590) vcan0 606#00 T
(1779851080.476602) vcan0 600#00000000 T
(1779851080.476630) vcan0 601#00000000 T
(1779851080.476646) vcan0 602#7F000000 T
(1779851080.524596) vcan0 603#00 T
(1779851080.524627) vcan0 604#00 T
(1779851080.524646) vcan0 607#00000000 T
(1779851080.588614) vcan0 600#00000000 T
(1779851080.588648) vcan0 601#00000000 T
(1779851080.588666) vcan0 602#7F000000 T
(1779851080.700641) vcan0 600#00000000 T
(1779851080.700682) vcan0 601#00000000 T
(1779851080.700702) vcan0 602#7F000000 T
(1779851080.732608) vcan0 603#00 T
(1779851080.732637) vcan0 604#00 T
(1779851080.732662) vcan0 607#00000000 T
(1779851080.812621) vcan0 600#00000000 T
(1779851080.812655) vcan0 601#00000000 T
(1779851080.812672) vcan0 602#7F000000 T
(1779851080.924632) vcan0 600#00000000 T
(1779851080.924663) vcan0 601#00000000 T
(1779851080.924680) vcan0 602#7F000000 T
(1779851080.940622) vcan0 603#00 T
(1779851080.940650) vcan0 604#00 T
(1779851080.940669) vcan0 607#00000000 T
(1779851080.956598) vcan0 606#00 T
(1779851081.035610) vcan0 600#00000000 T
(1779851081.035645) vcan0 601#00000000 T
(1779851081.035666) vcan0 602#7F000000 T
(1779851081.147611) vcan0 600#00000000 T
(1779851081.147647) vcan0 601#00000000 T
(1779851081.147667) vcan0 602#7F000000 T
(1779851081.147685) vcan0 603#00 T
(1779851081.147699) vcan0 604#00 T
(1779851081.147713) vcan0 607#00000000 T
(1779851081.259597) vcan0 600#00000000 T
(1779851081.259627) vcan0 601#00000000 T
(1779851081.259646) vcan0 602#7F000000 T
(1779851081.355645) vcan0 603#00 T
(1779851081.355676) vcan0 604#00 T
(1779851081.355697) vcan0 607#00000000 T
(1779851081.371598) vcan0 600#33000000 T
(1779851081.371626) vcan0 601#00000000 T
(1779851081.371643) vcan0 602#7F000000 T
(1779851081.468577) vcan0 606#00 T
(1779851081.484579) vcan0 600#E5000000 T
(1779851081.484601) vcan0 601#00000000 T
(1779851081.484616) vcan0 602#72000000 T
(1779851081.564604) vcan0 603#00 T
(1779851081.564642) vcan0 604#00 T
(1779851081.564662) vcan0 607#00000000 T
(1779851081.596590) vcan0 600#FF000000 T
(1779851081.596619) vcan0 601#00000000 T
(1779851081.596637) vcan0 602#72000000 T
(1779851081.708618) vcan0 600#FF000000 T
(1779851081.708654) vcan0 601#00000000 T
(1779851081.708673) vcan0 602#65000000 T
(1779851081.772639) vcan0 603#00 T
(1779851081.772674) vcan0 604#00 T
(1779851081.772691) vcan0 607#00000000 T
(1779851081.820631) vcan0 600#FF000000 T
(1779851081.820670) vcan0 601#00000000 T
(1779851081.820686) vcan0 602#65000000 T
(1779851081.932629) vcan0 600#FF000000 T
(1779851081.932664) vcan0 601#00000000 T
(1779851081.932683) vcan0 602#59000000 T
(1779851081.980630) vcan0 603#00 T
(1779851081.980658) vcan0 604#00 T
(1779851081.980676) vcan0 606#00 T
(1779851081.980690) vcan0 607#00000000 T
(1779851082.043605) vcan0 600#FF000000 T
(1779851082.043636) vcan0 601#00000000 T
(1779851082.043654) vcan0 602#59000000 T
(1779851082.155705) vcan0 600#FF000000 T
(1779851082.155780) vcan0 601#00000000 T
(1779851082.155803) vcan0 602#4C000000 T
(1779851082.187747) vcan0 603#00 T
(1779851082.187780) vcan0 604#00 T
(1779851082.187799) vcan0 607#00000000 T
(1779851082.267644) vcan0 600#00000000 T
(1779851082.267671) vcan0 601#00000000 T
(1779851082.267687) vcan0 602#7F000000 T
(1779851082.379701) vcan0 600#00000000 T
(1779851082.379735) vcan0 601#00000000 T
(1779851082.379753) vcan0 602#7F000000 T
(1779851082.395674) vcan0 603#00 T
(1779851082.395705) vcan0 604#00 T
(1779851082.395722) vcan0 607#00000000 T
(1779851082.492647) vcan0 600#00000000 T
(1779851082.492706) vcan0 601#00000000 T
(1779851082.492728) vcan0 602#7F000000 T
(1779851082.492748) vcan0 606#00 T
(1779851082.604615) vcan0 600#00000000 T
(1779851082.604646) vcan0 601#00000000 T
(1779851082.604664) vcan0 602#7F000000 T
(1779851082.604679) vcan0 603#00 T
(1779851082.604693) vcan0 604#00 T
(1779851082.604712) vcan0 607#00000000 T
(1779851082.716618) vcan0 600#00000000 T
(1779851082.716650) vcan0 601#00000000 T
(1779851082.716667) vcan0 602#7F000000 T
(1779851082.812694) vcan0 603#00 T
(1779851082.812732) vcan0 604#00 T
(1779851082.812755) vcan0 607#00000000 T
(1779851082.828670) vcan0 600#00000000 T
(1779851082.828700) vcan0 601#00000000 T
(1779851082.828719) vcan0 602#7F000000 T
(1779851082.940673) vcan0 600#00000000 T
(1779851082.940705) vcan0 601#00000000 T
(1779851082.940724) vcan0 602#7F000000 T
(1779851083.004653) vcan0 606#00 T
(1779851083.020642) vcan0 603#00 T
(1779851083.020666) vcan0 604#00 T
(1779851083.020682) vcan0 607#00000000 T
(1779851083.051698) vcan0 600#00000000 T
(1779851083.051792) vcan0 601#00000000 T
(1779851083.051810) vcan0 602#7F000000 T
(1779851083.163636) vcan0 600#00000000 T
(1779851083.163668) vcan0 601#00000000 T
(1779851083.163689) vcan0 602#7F000000 T
(1779851083.227631) vcan0 603#00 T
(1779851083.227663) vcan0 604#00 T
(1779851083.227683) vcan0 607#00000000 T
(1779851083.275644) vcan0 600#00000000 T
(1779851083.275751) vcan0 601#00000000 T
(1779851083.275767) vcan0 602#7F000000 T
(1779851083.387645) vcan0 600#00000000 T
(1779851083.387678) vcan0 601#00000000 T
(1779851083.387697) vcan0 602#7F000000 T
(1779851083.435715) vcan0 603#00 T
(1779851083.435756) vcan0 604#00 T
(1779851083.435777) vcan0 607#00000000 T
(1779851083.500651) vcan0 600#00000000 T
(1779851083.500678) vcan0 601#00000000 T
(1779851083.500695) vcan0 602#7F000000 T
(1779851083.516652) vcan0 606#00 T
(1779851083.612678) vcan0 600#00000000 T
(1779851083.612709) vcan0 601#00000000 T
(1779851083.612728) vcan0 602#7F000000 T
(1779851083.644670) vcan0 603#00 T
(1779851083.644698) vcan0 604#00 T
(1779851083.644713) vcan0 607#00000000 T
(1779851083.724635) vcan0 600#00000000 T
(1779851083.724665) vcan0 601#00000000 T
(1779851083.724682) vcan0 602#7F000000 T
(1779851083.836684) vcan0 600#00000000 T
(1779851083.836718) vcan0 601#00000000 T
(1779851083.836737) vcan0 602#7F000000 T
(1779851083.852678) vcan0 603#00 T
(1779851083.852703) vcan0 604#00 T
(1779851083.852719) vcan0 607#00000000 T
(1779851083.948650) vcan0 600#00000000 T
(1779851083.948682) vcan0 601#00000000 T
(1779851083.948701) vcan0 602#7F000000 T
(1779851084.027696) vcan0 606#00 T
(1779851084.059684) vcan0 600#00000000 T
(1779851084.059734) vcan0 601#00000000 T
(1779851084.059753) vcan0 602#7F000000 T
(1779851084.059771) vcan0 603#00 T
(1779851084.059785) vcan0 604#00 T
(1779851084.059801) vcan0 607#00000000 T
(1779851084.171699) vcan0 600#00000000 T
(1779851084.171734) vcan0 601#00000000 T
(1779851084.171754) vcan0 602#7F000000 T
(1779851084.267673) vcan0 603#00 T
(1779851084.267708) vcan0 604#00 T
(1779851084.267725) vcan0 607#00000000 T
(1779851084.283683) vcan0 600#00000000 T
(1779851084.283710) vcan0 601#00000000 T
(1779851084.283725) vcan0 602#7F000000 T
(1779851084.395685) vcan0 600#00000000 T
(1779851084.395716) vcan0 601#00000000 T
(1779851084.395732) vcan0 602#7F000000 T
(1779851084.476657) vcan0 603#00 T
(1779851084.476681) vcan0 604#00 T
(1779851084.476697) vcan0 607#00000000 T
(1779851084.508713) vcan0 600#00000000 T
(1779851084.508745) vcan0 601#00000000 T
(1779851084.508772) vcan0 602#7F000000 T
(1779851084.540691) vcan0 606#00 T
(1779851084.620681) vcan0 600#00000000 T
(1779851084.620711) vcan0 601#00000000 T
(1779851084.620731) vcan0 602#7F000000 T
(1779851084.684689) vcan0 603#00 T
(1779851084.684722) vcan0 604#00 T
(1779851084.684741) vcan0 607#00000000 T
(1779851084.732711) vcan0 600#00000000 T
(1779851084.732744) vcan0 601#00000000 T
(1779851084.732762) vcan0 602#7F000000 T
(1779851084.844677) vcan0 600#00000000 T
(1779851084.844709) vcan0 601#00000000 T
(1779851084.844726) vcan0 602#7F000000 T
(1779851084.892707) vcan0 603#00 T
(1779851084.892740) vcan0 604#00 T
(1779851084.892760) vcan0 607#00000000 T
(1779851084.956729) vcan0 600#00000000 T
(1779851084.956772) vcan0 601#00000000 T
(1779851084.956791) vcan0 602#7F000000 T
(1779851085.051711) vcan0 606#00 T
(1779851085.067740) vcan0 600#00000000 T
(1779851085.067784) vcan0 601#00000000 T
(1779851085.067816) vcan0 602#7F000000 T
(1779851085.099719) vcan0 603#00 T
(1779851085.099766) vcan0 604#00 T
(1779851085.099785) vcan0 607#00000000 T
(1779851085.179709) vcan0 600#00000000 T
(1779851085.179746) vcan0 601#00000000 T
(1779851085.179763) vcan0 602#7F000000 T
(1779851085.291695) vcan0 600#B2000000 T
(1779851085.291728) vcan0 601#00000000 T
(1779851085.291746) vcan0 602#72000000 T
(1779851085.307707) vcan0 603#00 T
(1779851085.307736) vcan0 604#00 T
(1779851085.307756) vcan0 607#00000000 T
(1779851085.403682) vcan0 600#FF000000 T
(1779851085.403713) vcan0 601#00000000 T
(1779851085.403732) vcan0 602#72000000 T
(1779851085.516726) vcan0 600#FF000000 T
(1779851085.516782) vcan0 601#00000000 T
(1779851085.516807) vcan0 602#65000000 T
(1779851085.516830) vcan0 603#00 T
(1779851085.516849) vcan0 604#00 T
(1779851085.516866) vcan0 607#00000000 T
(1779851085.564721) vcan0 606#00 T
(1779851085.628731) vcan0 600#FF000000 T
(1779851085.628763) vcan0 601#00000000 T
(1779851085.628785) vcan0 602#65000000 T
(1779851085.724764) vcan0 603#00 T
(1779851085.724797) vcan0 604#00 T
(1779851085.724815) vcan0 607#00000000 T
(1779851085.740694) vcan0 600#FF000000 T
(1779851085.740725) vcan0 601#00000000 T
(1779851085.740743) vcan0 602#59000000 T
(1779851085.852779) vcan0 600#FF000000 T
(1779851085.852814) vcan0 601#00000000 T
(1779851085.852830) vcan0 602#7F000000 T
(1779851085.932715) vcan0 603#00 T
(1779851085.932745) vcan0 604#00 T
(1779851085.932762) vcan0 607#00000000 T
(1779851085.964709) vcan0 600#FF000000 T
(1779851085.964745) vcan0 601#00000000 T
(1779851085.964764) vcan0 602#7F000000 T
(1779851086.075704) vcan0 600#FF000000 T
(1779851086.075737) vcan0 601#00000000 T
(1779851086.075756) vcan0 602#7F000000 T
(1779851086.075775) vcan0 606#00 T
(1779851086.139690) vcan0 603#00 T
(1779851086.139717) vcan0 604#00 T
(1779851086.139734) vcan0 607#00000000 T
(1779851086.187687) vcan0 600#FF000000 T
(1779851086.187715) vcan0 601#00000000 T
(1779851086.187732) vcan0 602#8C000000 T
(1779851086.299724) vcan0 600#FF000000 T
(1779851086.299756) vcan0 601#00000000 T
(1779851086.299773) vcan0 602#99000000 T
(1779851086.347734) vcan0 603#00 T
(1779851086.347770) vcan0 604#00 T
(1779851086.347789) vcan0 607#00000000 T
(1779851086.411704) vcan0 600#FF000000 T
(1779851086.411735) vcan0 601#00000000 T
(1779851086.411753) vcan0 602#99000000 T
(1779851086.524767) vcan0 600#FF000000 T
(1779851086.524818) vcan0 601#00000000 T
(1779851086.524840) vcan0 602#A5000000 T
(1779851086.556789) vcan0 603#00 T
(1779851086.556829) vcan0 604#00 T
(1779851086.556861) vcan0 607#00000000 T
(1779851086.588736) vcan0 606#00 T
(1779851086.636707) vcan0 600#FF000000 T
(1779851086.636734) vcan0 601#00000000 T
(1779851086.636749) vcan0 602#7F000000 T
(1779851086.748722) vcan0 600#FF000000 T
(1779851086.748756) vcan0 601#00000000 T
(1779851086.748774) vcan0 602#7F000000 T
(1779851086.764717) vcan0 603#00 T
(1779851086.764746) vcan0 604#00 T
(1779851086.764767) vcan0 607#00000000 T
(1779851086.860738) vcan0 600#FF000000 T
(1779851086.860767) vcan0 601#00000000 T
(1779851086.860784) vcan0 602#7F000000 T
(1779851086.972738) vcan0 600#FF000000 T
(1779851086.972774) vcan0 601#00000000 T
(1779851086.972793) vcan0 602#7F000000 T
(1779851086.972809) vcan0 603#00 T
(1779851086.972825) vcan0 604#00 T
(1779851086.972838) vcan0 607#00000000 T
(1779851087.083717) vcan0 600#FF000000 T
(1779851087.083745) vcan0 601#00000000 T
(1779851087.083760) vcan0 602#7F000000 T
(1779851087.099698) vcan0 606#00 T
(1779851087.179798) vcan0 603#00 T
(1779851087.179830) vcan0 604#00 T
(1779851087.179851) vcan0 607#00000000 T
(1779851087.195710) vcan0 600#FF000000 T
(1779851087.195737) vcan0 601#00000000 T
(1779851087.195756) vcan0 602#7F000000 T
(1779851087.307730) vcan0 600#FF000000 T
(1779851087.307759) vcan0 601#00000000 T
(1779851087.307778) vcan0 602#8C000000 T
(1779851087.387723) vcan0 603#00 T
(1779851087.387753) vcan0 604#00 T
(1779851087.387771) vcan0 607#00000000 T
(1779851087.419727) vcan0 600#FF000000 T
(1779851087.419758) vcan0 601#00000000 T
(1779851087.419776) vcan0 602#8C000000 T
(1779851087.532768) vcan0 600#FF000000 T
(1779851087.532811) vcan0 601#00000000 T
(1779851087.532834) vcan0 602#7F000000 T
(1779851087.596722) vcan0 603#00 T
(1779851087.596754) vcan0 604#00 T
(1779851087.596772) vcan0 607#00000000 T
(1779851087.612737) vcan0 606#00 T
(1779851087.644751) vcan0 600#FF000000 T
(1779851087.644783) vcan0 601#00000000 T
(1779851087.644798) vcan0 602#7F000000 T
(1779851087.756752) vcan0 600#FF000000 T
(1779851087.756788) vcan0 601#00000000 T
(1779851087.756806) vcan0 602#7F000000 T
(1779851087.804741) vcan0 603#00 T
(1779851087.804772) vcan0 604#00 T
(1779851087.804791) vcan0 607#00000000 T
(1779851087.868731) vcan0 600#FF000000 T
(1779851087.868763) vcan0 601#00000000 T
(1779851087.868778) vcan0 602#72000000 T
(1779851087.980723) vcan0 600#FF000000 T
(1779851087.980753) vcan0 601#00000000 T
(1779851087.980769) vcan0 602#72000000 T
(1779851088.012720) vcan0 603#00 T
(1779851088.012746) vcan0 604#00 T
(1779851088.012762) vcan0 607#00000000 T
(1779851088.091765) vcan0 600#FF000000 T
(1779851088.091796) vcan0 601#00000000 T
(1779851088.091813) vcan0 602#65000000 T
(1779851088.123749) vcan0 606#00 T
(1779851088.203793) vcan0 600#FF000000 T
(1779851088.203829) vcan0 601#00000000 T
(1779851088.203851) vcan0 602#7F000000 T
(1779851088.219734) vcan0 603#00 T
(1779851088.219761) vcan0 604#00 T
(1779851088.219779) vcan0 607#00000000 T
(1779851088.315760) vcan0 600#FF000000 T
(1779851088.315791) vcan0 601#00000000 T
(1779851088.315809) vcan0 602#7F000000 T
(1779851088.427762) vcan0 600#FF000000 T
(1779851088.427796) vcan0 601#00000000 T
(1779851088.427815) vcan0 602#7F000000 T
(1779851088.427833) vcan0 603#00 T
(1779851088.427848) vcan0 604#00 T
(1779851088.427863) vcan0 607#00000000 T
(1779851088.540774) vcan0 600#00000000 T
(1779851088.540805) vcan0 601#00000000 T
(1779851088.540822) vcan0 602#7F000000 T
(1779851088.636766) vcan0 603#00 T
(1779851088.636799) vcan0 604#00 T
(1779851088.636818) vcan0 606#00 T
(1779851088.636835) vcan0 607#00000000 T
(1779851088.652760) vcan0 600#00000000 T
(1779851088.652790) vcan0 601#00000000 T
(1779851088.652807) vcan0 602#7F000000 T
(1779851088.764739) vcan0 600#00000000 T
(1779851088.764769) vcan0 601#00000000 T
(1779851088.764787) vcan0 602#8C000000 T
(1779851088.844758) vcan0 603#00 T
(1779851088.844789) vcan0 604#00 T
(1779851088.844806) vcan0 607#00000000 T
(1779851088.876749) vcan0 600#00000000 T
(1779851088.876775) vcan0 601#00000000 T
(1779851088.876790) vcan0 602#8C000000 T
(1779851088.988768) vcan0 600#4C000000 T
(1779851088.988802) vcan0 601#00000000 T
(1779851088.988820) vcan0 602#99000000 T
(1779851089.051754) vcan0 603#00 T
(1779851089.051784) vcan0 604#00 T
(1779851089.051802) vcan0 607#00000000 T
(1779851089.099757) vcan0 600#FF000000 T
(1779851089.099787) vcan0 601#00000000 T
(1779851089.099804) vcan0 602#99000000 T
(1779851089.147753) vcan0 606#00 T
(1779851089.211742) vcan0 600#FF000000 T
(1779851089.211769) vcan0 601#00000000 T
(1779851089.211785) vcan0 602#A5000000 T
(1779851089.259777) vcan0 603#00 T
(1779851089.259807) vcan0 604#00 T
(1779851089.259826) vcan0 607#00000000 T
(1779851089.323753) vcan0 600#FF000000 T
(1779851089.323781) vcan0 601#00000000 T
(1779851089.323798) vcan0 602#7F000000 T
(1779851089.435808) vcan0 600#00000000 T
(1779851089.435841) vcan0 601#00000000 T
(1779851089.435858) vcan0 602#7F000000 T
(1779851089.468775) vcan0 603#00 T
(1779851089.468806) vcan0 604#00 T
(1779851089.468825) vcan0 607#00000000 T
(1779851089.548760) vcan0 600#00000000 T
(1779851089.548787) vcan0 601#00000000 T
(1779851089.548803) vcan0 602#7F000000 T
(1779851089.660802) vcan0 600#00000000 T
(1779851089.660835) vcan0 601#00000000 T
(1779851089.660855) vcan0 602#7F000000 T
(1779851089.660875) vcan0 606#00 T
(1779851089.676795) vcan0 603#00 T
(1779851089.676820) vcan0 604#00 T
(1779851089.676836) vcan0 607#00000000 T
(1779851089.772767) vcan0 600#00000000 T
(1779851089.772796) vcan0 601#00000000 T
(1779851089.772813) vcan0 602#7F000000 T
(1779851089.884796) vcan0 600#00000000 T
(1779851089.884830) vcan0 601#00000000 T
(1779851089.884847) vcan0 602#7F000000 T
(1779851089.884865) vcan0 603#00 T
(1779851089.884878) vcan0 604#00 T
(1779851089.884891) vcan0 607#00000000 T
(1779851089.996819) vcan0 600#00000000 T
(1779851089.996855) vcan0 601#00000000 T
(1779851089.996875) vcan0 602#72000000 T
(1779851090.091806) vcan0 603#00 T
(1779851090.091841) vcan0 604#00 T
(1779851090.091862) vcan0 607#00000000 T
(1779851090.107772) vcan0 600#99000000 T
(1779851090.107801) vcan0 601#00000000 T
(1779851090.107819) vcan0 602#72000000 T
(1779851090.171770) vcan0 606#00 T
(1779851090.219831) vcan0 600#00000000 T
(1779851090.219869) vcan0 601#00000000 T
(1779851090.219886) vcan0 602#65000000 T
(1779851090.299850) vcan0 603#00 T
(1779851090.299888) vcan0 604#00 T
(1779851090.299910) vcan0 607#00000000 T
(1779851090.331783) vcan0 600#00000000 T
(1779851090.331810) vcan0 601#00000000 T
(1779851090.331828) vcan0 602#65000000 T
(1779851090.444784) vcan0 600#00000000 T
(1779851090.444814) vcan0 601#00000000 T
(1779851090.444833) vcan0 602#59000000 T
(1779851090.508820) vcan0 603#00 T
(1779851090.508853) vcan0 604#00 T
(1779851090.508873) vcan0 607#00000000 T
(1779851090.556814) vcan0 600#00000000 T
(1779851090.556842) vcan0 601#00000000 T
(1779851090.556857) vcan0 602#7F000000 T
(1779851090.668802) vcan0 600#00000000 T
(1779851090.668832) vcan0 601#00000000 T
(1779851090.668850) vcan0 602#7F000000 T
(1779851090.684787) vcan0 606#00 T
(1779851090.716807) vcan0 603#00 T
(1779851090.716834) vcan0 604#00 T
(1779851090.716851) vcan0 607#00000000 T
(1779851090.764801) vcan0 60D#00000000 T
(1779851090.780796) vcan0 600#00000000 T
(1779851090.780826) vcan0 601#00000000 T
(1779851090.780846) vcan0 602#7F000000 T
(1779851090.892828) vcan0 600#00000000 T
(1779851090.892867) vcan0 601#00000000 T
(1779851090.892887) vcan0 602#7F000000 T
(1779851090.924802) vcan0 603#00 T
(1779851090.924832) vcan0 604#00 T
(1779851090.924852) vcan0 607#00000000 T
(1779851091.004798) vcan0 600#00000000 T
(1779851091.004828) vcan0 601#00000000 T
(1779851091.004846) vcan0 602#7F000000 T
(1779851091.115825) vcan0 600#00000000 T
(1779851091.115857) vcan0 601#00000000 T
(1779851091.115875) vcan0 602#7F000000 T
(1779851091.131804) vcan0 603#00 T
(1779851091.131829) vcan0 604#00 T
(1779851091.131847) vcan0 607#00000000 T
(1779851091.195820) vcan0 606#00 T
(1779851091.227824) vcan0 600#00000000 T
(1779851091.227852) vcan0 601#00000000 T
(1779851091.227874) vcan0 602#7F000000 T
(1779851091.339810) vcan0 600#00000000 T
(1779851091.339839) vcan0 601#00000000 T
(1779851091.339855) vcan0 602#7F000000 T
(1779851091.339870) vcan0 603#00 T
(1779851091.339887) vcan0 604#00 T
(1779851091.339900) vcan0 607#00000000 T
(1779851091.452830) vcan0 600#00000000 T
(1779851091.452858) vcan0 601#00000000 T
(1779851091.452875) vcan0 602#7F000000 T
(1779851091.548849) vcan0 603#00 T
(1779851091.548891) vcan0 604#00 T
(1779851091.548914) vcan0 607#00000000 T
(1779851091.564848) vcan0 600#00000000 T
(1779851091.564902) vcan0 601#00000000 T
(1779851091.564932) vcan0 602#7F000000 T
(1779851091.676810) vcan0 600#00000000 T
(1779851091.676839) vcan0 601#00000000 T
(1779851091.676856) vcan0 602#7F000000 T
(1779851091.708823) vcan0 606#00 T
(1779851091.740828) vcan0 60D#00000000 T
(1779851091.756793) vcan0 603#00 T
(1779851091.756818) vcan0 604#00 T
(1779851091.756835) vcan0 607#00000000 T
(1779851091.788811) vcan0 600#00000000 T
(1779851091.788838) vcan0 601#00000000 T
(1779851091.788856) vcan0 602#7F000000 T
(1779851091.900829) vcan0 600#00000000 T
(1779851091.900861) vcan0 601#00000000 T
(1779851091.900881) vcan0 602#7F000000 T
(1779851091.964888) vcan0 603#00 T
(1779851091.964916) vcan0 604#00 T
(1779851091.964933) vcan0 607#00000000 T
(1779851092.012827) vcan0 600#00000000 T
(1779851092.012856) vcan0 601#00000000 T
(1779851092.012875) vcan0 602#7F000000 T
(1779851092.123834) vcan0 600#00000000 T
(1779851092.123867) vcan0 601#00000000 T
(1779851092.123887) vcan0 602#7F000000 T
(1779851092.171836) vcan0 603#00 T
(1779851092.171864) vcan0 604#00 T
(1779851092.171883) vcan0 607#00000000 T
(1779851092.187814) vcan0 60D#00000000 T
(1779851092.219843) vcan0 606#00 T
(1779851092.235830) vcan0 600#99000000 T
(1779851092.235861) vcan0 601#00000000 T
(1779851092.235880) vcan0 602#7F000000 T
(1779851092.347849) vcan0 600#FF000000 T
(1779851092.347877) vcan0 601#00000000 T
(1779851092.347892) vcan0 602#7F000000 T
(1779851092.379840) vcan0 603#00 T
(1779851092.379870) vcan0 604#00 T
(1779851092.379886) vcan0 607#00000000 T
(1779851092.460848) vcan0 600#FF000000 T
(1779851092.460879) vcan0 601#00000000 T
(1779851092.460897) vcan0 602#7F000000 T
(1779851092.572914) vcan0 600#FF000000 T
(1779851092.572958) vcan0 601#00000000 T
(1779851092.572976) vcan0 602#7F000000 T
(1779851092.588825) vcan0 603#00 T
(1779851092.588850) vcan0 604#00 T
(1779851092.588880) vcan0 607#00000000 T
(1779851092.652839) vcan0 60D#00000000 T
(1779851092.684856) vcan0 600#FF000000 T
(1779851092.684888) vcan0 601#00000000 T
(1779851092.684908) vcan0 602#7F000000 T
(1779851092.732827) vcan0 606#00 T
(1779851092.796853) vcan0 600#00000000 T
(1779851092.796885) vcan0 601#00000000 T
(1779851092.796916) vcan0 602#7F000000 T
(1779851092.796937) vcan0 603#00 T
(1779851092.796954) vcan0 604#00 T
(1779851092.796968) vcan0 607#00000000 T
(1779851092.908849) vcan0 600#00000000 T
(1779851092.908882) vcan0 601#00000000 T
(1779851092.908898) vcan0 602#7F000000 T
(1779851093.004855) vcan0 603#00 T
(1779851093.004886) vcan0 604#00 T
(1779851093.004905) vcan0 607#00000000 T
(1779851093.020856) vcan0 600#7F000000 T
(1779851093.020886) vcan0 601#00000000 T
(1779851093.020904) vcan0 602#7F000000 T
(1779851093.131844) vcan0 600#FF000000 T
(1779851093.131876) vcan0 601#00000000 T
(1779851093.131895) vcan0 602#7F000000 T
(1779851093.211840) vcan0 603#00 T
(1779851093.211869) vcan0 604#00 T
(1779851093.211888) vcan0 607#00000000 T
(1779851093.243864) vcan0 600#00000000 T
(1779851093.243889) vcan0 601#00000000 T
(1779851093.243903) vcan0 602#7F000000 T
(1779851093.243918) vcan0 606#00 T
(1779851093.355861) vcan0 60D#00000000 T
(1779851093.355888) vcan0 600#00000000 T
(1779851093.355907) vcan0 601#00000000 T
(1779851093.355926) vcan0 602#7F000000 T
(1779851093.419879) vcan0 603#00 T
(1779851093.419913) vcan0 604#00 T
(1779851093.419933) vcan0 607#00000000 T
(1779851093.468873) vcan0 600#00000000 T
(1779851093.468906) vcan0 601#00000000 T
(1779851093.468926) vcan0 602#7F000000 T
(1779851093.580885) vcan0 600#00000000 T
(1779851093.580919) vcan0 601#00000000 T
(1779851093.580937) vcan0 602#7F000000 T
(1779851093.628886) vcan0 603#00 T
(1779851093.628913) vcan0 604#00 T
(1779851093.628931) vcan0 607#00000000 T
(1779851093.660881) vcan0 60D#00000000 T
(1779851093.692871) vcan0 600#00000000 T
(1779851093.692904) vcan0 601#00000000 T
(1779851093.692923) vcan0 602#7F000000 T
(1779851093.756881) vcan0 606#00 T
(1779851093.804885) vcan0 600#00000000 T
(1779851093.804915) vcan0 601#00000000 T
(1779851093.804933) vcan0 602#7F000000 T
(1779851093.836905) vcan0 603#00 T
(1779851093.836938) vcan0 604#00 T
(1779851093.836957) vcan0 607#00000000 T
(1779851093.916863) vcan0 600#00000000 T
(1779851093.916892) vcan0 601#00000000 T
(1779851093.916909) vcan0 602#7F000000 T
(1779851093.996882) vcan0 60D#00000000 T
(1779851094.027883) vcan0 600#00000000 T
(1779851094.027918) vcan0 601#00000000 T
(1779851094.027938) vcan0 602#7F000000 T
(1779851094.043871) vcan0 603#00 T
(1779851094.043900) vcan0 604#00 T
(1779851094.043920) vcan0 607#00000000 T
(1779851094.139871) vcan0 600#00000000 T
(1779851094.139903) vcan0 601#00000000 T
(1779851094.139922) vcan0 602#7F000000 T
(1779851094.219896) vcan0 60D#00000000 T
(1779851094.251858) vcan0 600#00000000 T
(1779851094.251885) vcan0 601#00000000 T
(1779851094.251903) vcan0 602#7F000000 T
(1779851094.251919) vcan0 603#00 T
(1779851094.251933) vcan0 604#00 T
(1779851094.251948) vcan0 607#00000000 T
(1779851094.267882) vcan0 606#00 T
(1779851094.363877) vcan0 600#00000000 T
(1779851094.363903) vcan0 601#00000000 T
(1779851094.363930) vcan0 602#7F000000 T
(1779851094.460886) vcan0 603#00 T
(1779851094.460919) vcan0 604#00 T
(1779851094.460938) vcan0 607#00000000 T
(1779851094.476901) vcan0 600#00000000 T
(1779851094.476931) vcan0 601#00000000 T
(1779851094.476951) vcan0 602#7F000000 T
(1779851094.508933) vcan0 60D#00000000 T
(1779851094.588887) vcan0 600#00000000 T
(1779851094.588921) vcan0 601#00000000 T
(1779851094.588952) vcan0 602#7F000000 T
(1779851094.668879) vcan0 603#00 T
(1779851094.668908) vcan0 604#00 T
(1779851094.668926) vcan0 607#00000000 T
(1779851094.700910) vcan0 600#00000000 T
(1779851094.700944) vcan0 601#00000000 T
(1779851094.700964) vcan0 602#7F000000 T
(1779851094.764928) vcan0 60D#00000000 T
(1779851094.780881) vcan0 606#00 T
(1779851094.812895) vcan0 600#00000000 T
(1779851094.812929) vcan0 601#00000000 T
(1779851094.812949) vcan0 602#7F000000 T
(1779851094.876910) vcan0 603#00 T
(1779851094.876942) vcan0 604#00 T
(1779851094.876961) vcan0 607#00000000 T
(1779851094.924878) vcan0 600#00000000 T
(1779851094.924923) vcan0 601#00000000 T
(1779851094.924942) vcan0 602#7F000000 T
(1779851095.004924) vcan0 60D#00000000 T
(1779851095.035908) vcan0 600#00000000 T
(1779851095.035940) vcan0 601#00000000 T
(1779851095.035959) vcan0 602#7F000000 T
(1779851095.083936) vcan0 603#00 T
(1779851095.083981) vcan0 604#00 T
(1779851095.084006) vcan0 607#00000000 T
(1779851095.147874) vcan0 600#00000000 T
(1779851095.147901) vcan0 601#00000000 T
(1779851095.147917) vcan0 602#7F000000 T
(1779851095.259908) vcan0 60D#00000000 T
(1779851095.259941) vcan0 600#00000000 T
(1779851095.259957) vcan0 601#00000000 T
(1779851095.259973) vcan0 602#7F000000 T
(1779851095.291915) vcan0 603#00 T
(1779851095.291942) vcan0 604#00 T
(1779851095.291957) vcan0 606#00 T
(1779851095.291972) vcan0 607#00000000 T
(1779851095.371924) vcan0 600#19000000 T
(1779851095.371966) vcan0 601#00000000 T
(1779851095.371994) vcan0 602#7F000000 T
(1779851095.484940) vcan0 600#CC000000 T
(1779851095.484977) vcan0 601#00000000 T
(1779851095.485012) vcan0 602#7F000000 T
(1779851095.500916) vcan0 603#00 T
(1779851095.500940) vcan0 604#00 T
(1779851095.500956) vcan0 607#00000000 T
(1779851095.596924) vcan0 600#FF000000 T
(1779851095.596955) vcan0 601#00000000 T
(1779851095.596973) vcan0 602#7F000000 T
(1779851095.708925) vcan0 600#00000000 T
(1779851095.708961) vcan0 601#00000000 T
(1779851095.708978) vcan0 602#7F000000 T
(1779851095.709007) vcan0 603#00 T
(1779851095.709020) vcan0 604#00 T
(1779851095.709034) vcan0 607#00000000 T
(1779851095.804935) vcan0 606#00 T
(1779851095.820914) vcan0 600#00000000 T
(1779851095.820941) vcan0 601#00000000 T
(1779851095.820957) vcan0 602#7F000000 T
(1779851095.868912) vcan0 60C#01 T
(1779851095.916924) vcan0 603#00 T
(1779851095.916955) vcan0 604#00 T
(1779851095.916975) vcan0 607#00000000 T
(1779851095.932900) vcan0 600#00000000 T
(1779851095.932928) vcan0 601#00000000 T
(1779851095.932945) vcan0 602#7F000000 T
(1779851096.043936) vcan0 600#00000000 T
(1779851096.043966) vcan0 601#00000000 T
(1779851096.043981) vcan0 602#7F000000 T
(1779851096.123925) vcan0 603#00 T
(1779851096.123955) vcan0 604#00 T
(1779851096.123975) vcan0 607#00000000 T
(1779851096.139936) vcan0 60C#01 T
(1779851096.155924) vcan0 600#00000000 T
(1779851096.155952) vcan0 601#00000000 T
(1779851096.155969) vcan0 602#7F000000 T
(1779851096.267940) vcan0 600#00000000 T
(1779851096.267990) vcan0 601#00000000 T
(1779851096.268010) vcan0 602#7F000000 T
(1779851096.315935) vcan0 606#00 T
(1779851096.331917) vcan0 603#00 T
(1779851096.331944) vcan0 604#00 T
(1779851096.331962) vcan0 607#00000000 T
(1779851096.379914) vcan0 600#00000000 T
(1779851096.379943) vcan0 601#00000000 T
(1779851096.379960) vcan0 602#7F000000 T
(1779851096.395902) vcan0 60C#01 T
(1779851096.492937) vcan0 600#00000000 T
(1779851096.492967) vcan0 601#00000000 T
(1779851096.492992) vcan0 602#7F000000 T
(1779851096.540930) vcan0 603#00 T
(1779851096.540958) vcan0 604#00 T
(1779851096.540975) vcan0 607#00000000 T
(1779851096.604921) vcan0 600#00000000 T
(1779851096.604949) vcan0 601#00000000 T
(1779851096.604965) vcan0 602#7F000000 T
(1779851096.716935) vcan0 600#00000000 T
(1779851096.716970) vcan0 601#00000000 T
(1779851096.716990) vcan0 602#7F000000 T
(1779851096.748934) vcan0 603#00 T
(1779851096.748964) vcan0 604#00 T
(1779851096.748981) vcan0 607#00000000 T
(1779851096.828906) vcan0 600#00000000 T
(1779851096.828935) vcan0 601#00000000 T
(1779851096.828951) vcan0 602#7F000000 T
(1779851096.828967) vcan0 606#00 T
(1779851096.940913) vcan0 600#00000000 T
(1779851096.940940) vcan0 601#00000000 T
(1779851096.940957) vcan0 602#7F000000 T
(1779851096.956943) vcan0 603#00 T
(1779851096.956972) vcan0 604#00 T
(1779851096.956990) vcan0 607#00000000 T
(1779851097.051956) vcan0 600#00000000 T
(1779851097.051986) vcan0 601#00000000 T
(1779851097.052005) vcan0 602#7F000000 T
(1779851097.163992) vcan0 600#66000000 T
(1779851097.164027) vcan0 601#00000000 T
(1779851097.164050) vcan0 602#7F000000 T
(1779851097.164069) vcan0 603#00 T
(1779851097.164085) vcan0 604#00 T
(1779851097.164100) vcan0 607#00000000 T
(1779851097.275986) vcan0 600#FF000000 T
(1779851097.276021) vcan0 601#00000000 T
(1779851097.276041) vcan0 602#7F000000 T
(1779851097.340019) vcan0 606#00 T
(1779851097.371942) vcan0 603#00 T
(1779851097.371969) vcan0 604#00 T
(1779851097.371985) vcan0 607#00000000 T
(1779851097.387962) vcan0 600#FF000000 T
(1779851097.387991) vcan0 601#00000000 T
(1779851097.388007) vcan0 602#7F000000 T
(1779851097.435956) vcan0 60C#01 T
(1779851097.500949) vcan0 600#FF000000 T
(1779851097.500982) vcan0 601#00000000 T
(1779851097.501000) vcan0 602#7F000000 T
(1779851097.580954) vcan0 603#00 T
(1779851097.580988) vcan0 604#00 T
(1779851097.581007) vcan0 607#00000000 T
(1779851097.612956) vcan0 600#FF000000 T
(1779851097.612988) vcan0 601#00000000 T
(1779851097.613004) vcan0 602#7F000000 T
(1779851097.724972) vcan0 600#FF000000 T
(1779851097.725010) vcan0 601#00000000 T
(1779851097.725029) vcan0 602#7F000000 T
(1779851097.788963) vcan0 603#00 T
(1779851097.788998) vcan0 604#00 T
(1779851097.789026) vcan0 607#00000000 T
(1779851097.836932) vcan0 600#FF000000 T
(1779851097.836958) vcan0 601#00000000 T
(1779851097.836973) vcan0 602#7F000000 T
(1779851097.852963) vcan0 606#00 T
(1779851097.948970) vcan0 600#FF000000 T
(1779851097.949001) vcan0 601#00000000 T
(1779851097.949016) vcan0 602#7F000000 T
(1779851097.996947) vcan0 603#00 T
(1779851097.996983) vcan0 604#00 T
(1779851097.997007) vcan0 607#00000000 T
(1779851098.059971) vcan0 600#FF000000 T
(1779851098.060001) vcan0 601#00000000 T
(1779851098.060019) vcan0 602#8C000000 T
(1779851098.171973) vcan0 600#FF000000 T
(1779851098.172009) vcan0 601#00000000 T
(1779851098.172032) vcan0 602#8C000000 T
(1779851098.203976) vcan0 603#00 T
(1779851098.204007) vcan0 604#00 T
(1779851098.204028) vcan0 607#00000000 T
(1779851098.283982) vcan0 600#FF000000 T
(1779851098.284023) vcan0 601#00000000 T
(1779851098.284050) vcan0 602#7F000000 T
(1779851098.363981) vcan0 606#00 T
(1779851098.395959) vcan0 600#FF000000 T
(1779851098.395990) vcan0 601#00000000 T
(1779851098.396006) vcan0 602#7F000000 T
(1779851098.411958) vcan0 603#00 T
(1779851098.411993) vcan0 604#00 T
(1779851098.412013) vcan0 607#00000000 T
(1779851098.509006) vcan0 600#FF000000 T
(1779851098.509042) vcan0 601#00000000 T
(1779851098.509059) vcan0 602#7F000000 T
(1779851098.620960) vcan0 600#FF000000 T
(1779851098.620991) vcan0 601#00000000 T
(1779851098.621009) vcan0 602#8C000000 T
(1779851098.621026) vcan0 603#00 T
(1779851098.621042) vcan0 604#00 T
(1779851098.621058) vcan0 607#00000000 T
(1779851098.732972) vcan0 600#FF000000 T
(1779851098.733004) vcan0 601#00000000 T
(1779851098.733023) vcan0 602#8C000000 T
(1779851098.828959) vcan0 603#00 T
(1779851098.828988) vcan0 604#00 T
(1779851098.829006) vcan0 607#00000000 T
(1779851098.845005) vcan0 600#FF000000 T
(1779851098.845034) vcan0 601#00000000 T
(1779851098.845056) vcan0 602#99000000 T
(1779851098.876950) vcan0 606#00 T
(1779851098.956974) vcan0 600#00000000 T
(1779851098.957007) vcan0 601#00000000 T
(1779851098.957026) vcan0 602#99000000 T
(1779851099.035995) vcan0 603#00 T
(1779851099.036026) vcan0 604#00 T
(1779851099.036058) vcan0 607#00000000 T
(1779851099.068026) vcan0 600#19000000 T
(1779851099.068056) vcan0 601#00000000 T
(1779851099.068075) vcan0 602#A5000000 T
(1779851099.179983) vcan0 600#CC000000 T
(1779851099.180013) vcan0 601#00000000 T
(1779851099.180030) vcan0 602#A5000000 T
(1779851099.244010) vcan0 603#00 T
(1779851099.244041) vcan0 604#00 T
(1779851099.244063) vcan0 607#00000000 T
(1779851099.291992) vcan0 600#00000000 T
(1779851099.292018) vcan0 601#00000000 T
(1779851099.292036) vcan0 602#7F000000 T
(1779851099.387985) vcan0 606#00 T
(1779851099.403976) vcan0 600#00000000 T
(1779851099.404007) vcan0 601#00000000 T
(1779851099.404037) vcan0 602#7F000000 T
(1779851099.452974) vcan0 603#00 T
(1779851099.453001) vcan0 604#00 T
(1779851099.453020) vcan0 607#00000000 T
(1779851099.516976) vcan0 600#00000000 T
(1779851099.517002) vcan0 601#00000000 T
(1779851099.517030) vcan0 602#7F000000 T
(1779851099.629001) vcan0 600#33000000 T
(1779851099.629031) vcan0 601#00000000 T
(1779851099.629049) vcan0 602#7F000000 T
(1779851099.660986) vcan0 603#00 T
(1779851099.661012) vcan0 604#00 T
(1779851099.661028) vcan0 607#00000000 T
(1779851099.741030) vcan0 600#E5000000 T
(1779851099.741063) vcan0 601#00000000 T
(1779851099.741082) vcan0 602#7F000000 T
(1779851099.853026) vcan0 600#FF000000 T
(1779851099.853057) vcan0 601#00000000 T
(1779851099.853074) vcan0 602#7F000000 T
(1779851099.868987) vcan0 603#00 T
(1779851099.869024) vcan0 604#00 T
(1779851099.869045) vcan0 607#00000000 T
(1779851099.900990) vcan0 606#00 T
(1779851099.964994) vcan0 600#FF000000 T
(1779851099.965020) vcan0 601#00000000 T
(1779851099.965035) vcan0 602#7F000000 T
(1779851100.076058) vcan0 600#FF000000 T
(1779851100.076100) vcan0 601#00000000 T
(1779851100.076119) vcan0 602#7F000000 T
(1779851100.076137) vcan0 603#00 T
(1779851100.076152) vcan0 604#00 T
(1779851100.076168) vcan0 607#00000000 T
(1779851100.188012) vcan0 600#FF000000 T
(1779851100.188044) vcan0 601#00000000 T
(1779851100.188062) vcan0 602#7F000000 T
(1779851100.284009) vcan0 603#00 T
(1779851100.284036) vcan0 604#00 T
(1779851100.284052) vcan0 607#00000000 T
(1779851100.299991) vcan0 600#FF000000 T
(1779851100.300017) vcan0 601#00000000 T
(1779851100.300037) vcan0 602#7F000000 T
(1779851100.412010) vcan0 600#FF000000 T
(1779851100.412038) vcan0 601#00000000 T
(1779851100.412053) vcan0 602#7F000000 T
(1779851100.412069) vcan0 606#00 T
(1779851100.493019) vcan0 603#00 T
(1779851100.493046) vcan0 604#00 T
(1779851100.493061) vcan0 607#00000000 T
(1779851100.525019) vcan0 600#FF000000 T
(1779851100.525048) vcan0 601#00000000 T
(1779851100.525071) vcan0 602#72000000 T
(1779851100.637006) vcan0 600#FF000000 T
(1779851100.637034) vcan0 601#00000000 T
(1779851100.637051) vcan0 602#65000000 T
(1779851100.701023) vcan0 603#00 T
(1779851100.701053) vcan0 604#00 T
(1779851100.701069) vcan0 607#00000000 T
(1779851100.749033) vcan0 600#FF000000 T
(1779851100.749060) vcan0 601#00000000 T
(1779851100.749075) vcan0 602#65000000 T
(1779851100.861008) vcan0 600#FF000000 T
(1779851100.861038) vcan0 601#00000000 T
(1779851100.861055) vcan0 602#7F000000 T
(1779851100.909025) vcan0 603#00 T
(1779851100.909048) vcan0 604#00 T
(1779851100.909063) vcan0 607#00000000 T
(1779851100.925032) vcan0 606#00 T
(1779851100.973005) vcan0 600#00000000 T
(1779851100.973031) vcan0 601#00000000 T
(1779851100.973049) vcan0 602#7F000000 T
(1779851101.084031) vcan0 600#00000000 T
(1779851101.084068) vcan0 601#00000000 T
(1779851101.084090) vcan0 602#7F000000 T
(1779851101.116046) vcan0 603#00 T
(1779851101.116079) vcan0 604#00 T
(1779851101.116098) vcan0 607#00000000 T
(1779851101.196039) vcan0 600#00000000 T
(1779851101.196072) vcan0 601#00000000 T
(1779851101.196091) vcan0 602#7F000000 T
(1779851101.308043) vcan0 600#00000000 T
(1779851101.308076) vcan0 601#00000000 T
(1779851101.308094) vcan0 602#7F000000 T
(1779851101.324049) vcan0 603#00 T
(1779851101.324078) vcan0 604#00 T
(1779851101.324093) vcan0 607#00000000 T
(1779851101.420036) vcan0 600#00000000 T
(1779851101.420065) vcan0 601#00000000 T
(1779851101.420081) vcan0 602#72000000 T
(1779851101.436084) vcan0 606#00 T
(1779851101.533045) vcan0 600#B2000000 T
(1779851101.533077) vcan0 601#00000000 T
(1779851101.533096) vcan0 602#72000000 T
(1779851101.533113) vcan0 603#00 T
(1779851101.533130) vcan0 604#00 T
(1779851101.533146) vcan0 607#00000000 T
(1779851101.645040) vcan0 600#00000000 T
(1779851101.645066) vcan0 601#00000000 T
(1779851101.645081) vcan0 602#65000000 T
(1779851101.741148) vcan0 603#00 T
(1779851101.741189) vcan0 604#00 T
(1779851101.741225) vcan0 607#00000000 T
(1779851101.757040) vcan0 600#00000000 T
(1779851101.757067) vcan0 601#00000000 T
(1779851101.757085) vcan0 602#65000000 T
(1779851101.869026) vcan0 600#00000000 T
(1779851101.869053) vcan0 601#00000000 T
(1779851101.869068) vcan0 602#59000000 T
(1779851101.949061) vcan0 603#00 T
(1779851101.949094) vcan0 604#00 T
(1779851101.949112) vcan0 606#00 T
(1779851101.949133) vcan0 607#00000000 T
(1779851101.981025) vcan0 600#00000000 T
(1779851101.981049) vcan0 601#00000000 T
(1779851101.981064) vcan0 602#7F000000 T
(1779851102.092077) vcan0 600#00000000 T
(1779851102.092109) vcan0 601#00000000 T
(1779851102.092129) vcan0 602#7F000000 T
(1779851102.156087) vcan0 603#00 T
(1779851102.156121) vcan0 604#00 T
(1779851102.156142) vcan0 607#00000000 T
(1779851102.204047) vcan0 600#33000000 T
(1779851102.204076) vcan0 601#00000000 T
(1779851102.204092) vcan0 602#7F000000 T
(1779851102.316041) vcan0 600#E5000000 T
(1779851102.316072) vcan0 601#00000000 T
(1779851102.316090) vcan0 602#7F000000 T
(1779851102.364095) vcan0 603#00 T
(1779851102.364127) vcan0 604#00 T
(1779851102.364146) vcan0 607#00000000 T
(1779851102.428070) vcan0 600#00000000 T
(1779851102.428104) vcan0 601#00000000 T
(1779851102.428124) vcan0 602#8C000000 T
(1779851102.461058) vcan0 606#00 T
(1779851102.541061) vcan0 600#00000000 T
(1779851102.541091) vcan0 601#00000000 T
(1779851102.541107) vcan0 602#7F000000 T
(1779851102.573036) vcan0 603#00 T
(1779851102.573062) vcan0 604#00 T
(1779851102.573078) vcan0 607#00000000 T
(1779851102.653065) vcan0 600#00000000 T
(1779851102.653096) vcan0 601#00000000 T
(1779851102.653115) vcan0 602#7F000000 T
(1779851102.765082) vcan0 600#00000000 T
(1779851102.765116) vcan0 601#00000000 T
(1779851102.765138) vcan0 602#7F000000 T
(1779851102.781084) vcan0 603#00 T
(1779851102.781127) vcan0 604#00 T
(1779851102.781146) vcan0 607#00000000 T
(1779851102.877067) vcan0 600#7F000000 T
(1779851102.877099) vcan0 601#00000000 T
(1779851102.877117) vcan0 602#72000000 T
(1779851102.973057) vcan0 606#00 T
(1779851102.989081) vcan0 600#FF000000 T
(1779851102.989112) vcan0 601#00000000 T
(1779851102.989130) vcan0 602#72000000 T
(1779851102.989146) vcan0 603#00 T
(1779851102.989162) vcan0 604#00 T
(1779851102.989177) vcan0 607#00000000 T
(1779851103.100094) vcan0 600#00000000 T
(1779851103.100130) vcan0 601#00000000 T
(1779851103.100150) vcan0 602#7F000000 T
(1779851103.196073) vcan0 603#00 T
(1779851103.196102) vcan0 604#00 T
(1779851103.196118) vcan0 607#00000000 T
(1779851103.212073) vcan0 600#00000000 T
(1779851103.212101) vcan0 601#00000000 T
(1779851103.212119) vcan0 602#7F000000 T
(1779851103.324056) vcan0 600#00000000 T
(1779851103.324084) vcan0 601#00000000 T
(1779851103.324101) vcan0 602#7F000000 T
(1779851103.404085) vcan0 603#00 T
(1779851103.404114) vcan0 604#00 T
(1779851103.404133) vcan0 607#00000000 T
(1779851103.436076) vcan0 600#00000000 T
(1779851103.436106) vcan0 601#00000000 T
(1779851103.436125) vcan0 602#7F000000 T
(1779851103.485112) vcan0 606#00 T
(1779851103.549094) vcan0 600#00000000 T
(1779851103.549127) vcan0 601#00000000 T
(1779851103.549144) vcan0 602#7F000000 T
(1779851103.613100) vcan0 603#00 T
(1779851103.613127) vcan0 604#00 T
(1779851103.613143) vcan0 607#00000000 T
(1779851103.661096) vcan0 600#7F000000 T
(1779851103.661125) vcan0 601#00000000 T
(1779851103.661140) vcan0 602#7F000000 T
(1779851103.773099) vcan0 600#FF000000 T
(1779851103.773135) vcan0 601#00000000 T
(1779851103.773153) vcan0 602#72000000 T
(1779851103.821088) vcan0 603#00 T
(1779851103.821116) vcan0 604#00 T
(1779851103.821134) vcan0 607#00000000 T
(1779851103.885070) vcan0 600#FF000000 T
(1779851103.885100) vcan0 601#00000000 T
(1779851103.885117) vcan0 602#65000000 T
(1779851103.997089) vcan0 600#FF000000 T
(1779851103.997119) vcan0 601#00000000 T
(1779851103.997136) vcan0 602#7F000000 T
(1779851103.997158) vcan0 606#00 T
(1779851104.028101) vcan0 603#00 T
(1779851104.028134) vcan0 604#00 T
(1779851104.028154) vcan0 607#00000000 T
(1779851104.108094) vcan0 600#00000000 T
(1779851104.108125) vcan0 601#00000000 T
(1779851104.108142) vcan0 602#7F000000 T
(1779851104.220081) vcan0 600#00000000 T
(1779851104.220112) vcan0 601#00000000 T
(1779851104.220140) vcan0 602#7F000000 T
(1779851104.236117) vcan0 603#00 T
(1779851104.236145) vcan0 604#00 T
(1779851104.236161) vcan0 607#00000000 T
(1779851104.332090) vcan0 600#00000000 T
(1779851104.332123) vcan0 601#00000000 T
(1779851104.332141) vcan0 602#7F000000 T
(1779851104.445123) vcan0 600#00000000 T
(1779851104.445161) vcan0 601#00000000 T
(1779851104.445181) vcan0 602#7F000000 T
(1779851104.445201) vcan0 603#00 T
(1779851104.445218) vcan0 604#00 T
(1779851104.445234) vcan0 607#00000000 T
(1779851104.493107) vcan0 60D#40000000 T
(1779851104.509148) vcan0 606#00 T
(1779851104.557099) vcan0 600#00000000 T
(1779851104.557128) vcan0 601#00000000 T
(1779851104.557144) vcan0 602#7F000000 T
(1779851104.653101) vcan0 603#01 T
(1779851104.653133) vcan0 604#00 T
(1779851104.669102) vcan0 600#00000000 T
(1779851104.669133) vcan0 601#00000000 T
(1779851104.669152) vcan0 602#7F000000 T
(1779851104.781103) vcan0 600#00000000 T
(1779851104.781135) vcan0 601#00000000 T
(1779851104.781154) vcan0 602#8C000000 T
(1779851104.861124) vcan0 603#01 T
(1779851104.861159) vcan0 604#00 T
(1779851104.893104) vcan0 600#00000000 T
(1779851104.893147) vcan0 601#00000000 T
(1779851104.893163) vcan0 602#99000000 T
(1779851105.005121) vcan0 600#00000000 T
(1779851105.005148) vcan0 601#00000000 T
(1779851105.005164) vcan0 602#7F000000 T
(1779851105.021111) vcan0 606#00 T
(1779851105.068108) vcan0 603#01 T
(1779851105.068135) vcan0 604#00 T
(1779851105.116115) vcan0 600#00000000 T
(1779851105.116148) vcan0 601#00000000 T
(1779851105.116167) vcan0 602#7F000000 T
(1779851105.228138) vcan0 600#00000000 T
(1779851105.228172) vcan0 601#00000000 T
(1779851105.228205) vcan0 602#72000000 T
(1779851105.276177) vcan0 603#01 T
(1779851105.276217) vcan0 604#00 T
(1779851105.340121) vcan0 600#00000000 T
(1779851105.340157) vcan0 601#00000000 T
(1779851105.340176) vcan0 602#72000000 T
(1779851105.453168) vcan0 600#19000000 T
(1779851105.453204) vcan0 601#00000000 T
(1779851105.453224) vcan0 602#65000000 T
(1779851105.485149) vcan0 603#01 T
(1779851105.485186) vcan0 604#00 T
(1779851105.533120) vcan0 606#00 T
(1779851105.565097) vcan0 600#CC000000 T
(1779851105.565122) vcan0 601#00000000 T
(1779851105.565136) vcan0 602#65000000 T
(1779851105.677130) vcan0 600#FF000000 T
(1779851105.677161) vcan0 601#00000000 T
(1779851105.677179) vcan0 602#59000000 T
(1779851105.693134) vcan0 603#01 T
(1779851105.693161) vcan0 604#00 T
(1779851105.789129) vcan0 600#FF000000 T
(1779851105.789162) vcan0 601#00000000 T
(1779851105.789181) vcan0 602#4C000000 T
(1779851105.901151) vcan0 600#FF000000 T
(1779851105.901188) vcan0 601#00000000 T
(1779851105.901210) vcan0 602#4C000000 T
(1779851105.901229) vcan0 603#01 T
(1779851105.901246) vcan0 604#00 T
(1779851106.013185) vcan0 600#FF000000 T
(1779851106.013239) vcan0 601#00000000 T
(1779851106.013272) vcan0 602#3F000000 T
(1779851106.044165) vcan0 606#00 T
(1779851106.108132) vcan0 603#01 T
(1779851106.108161) vcan0 604#00 T
(1779851106.124158) vcan0 600#FF000000 T
(1779851106.124187) vcan0 601#00000000 T
(1779851106.124203) vcan0 602#3F000000 T
(1779851106.236156) vcan0 600#FF000000 T
(1779851106.236188) vcan0 601#00000000 T
(1779851106.236204) vcan0 602#32000000 T
(1779851106.316142) vcan0 603#01 T
(1779851106.316175) vcan0 604#00 T
(1779851106.348170) vcan0 600#FF000000 T
(1779851106.348196) vcan0 601#00000000 T
(1779851106.348210) vcan0 602#7F000000 T
(1779851106.461129) vcan0 600#FF000000 T
(1779851106.461157) vcan0 601#00000000 T
(1779851106.461173) vcan0 602#7F000000 T
(1779851106.525175) vcan0 603#01 T
(1779851106.525210) vcan0 604#00 T
(1779851106.557158) vcan0 606#00 T
(1779851106.573154) vcan0 600#00000000 T
(1779851106.573183) vcan0 601#00000000 T
(1779851106.573203) vcan0 602#7F000000 T
(1779851106.685164) vcan0 600#33000000 T
(1779851106.685195) vcan0 601#00000000 T
(1779851106.685215) vcan0 602#8C000000 T
(1779851106.733149) vcan0 603#01 T
(1779851106.733179) vcan0 604#00 T
(1779851106.797129) vcan0 600#E5000000 T
(1779851106.797158) vcan0 601#00000000 T
(1779851106.797175) vcan0 602#8C000000 T
(1779851106.909211) vcan0 600#FF000000 T
(1779851106.909243) vcan0 601#00000000 T
(1779851106.909260) vcan0 602#99000000 T
(1779851106.941148) vcan0 603#01 T
(1779851106.941179) vcan0 604#00 T
(1779851107.021146) vcan0 600#FF000000 T
(1779851107.021176) vcan0 601#00000000 T
(1779851107.021190) vcan0 602#7F000000 T
(1779851107.068136) vcan0 606#00 T
(1779851107.132168) vcan0 600#FF000000 T
(1779851107.132200) vcan0 601#00000000 T
(1779851107.132217) vcan0 602#7F000000 T
(1779851107.148147) vcan0 603#01 T
(1779851107.148172) vcan0 604#00 T
(1779851107.244163) vcan0 600#FF000000 T
(1779851107.244190) vcan0 601#00000000 T
(1779851107.244205) vcan0 602#7F000000 T
(1779851107.356184) vcan0 600#FF000000 T
(1779851107.356215) vcan0 601#00000000 T
(1779851107.356247) vcan0 602#8C000000 T
(1779851107.356265) vcan0 603#01 T
(1779851107.356285) vcan0 604#00 T
(1779851107.469191) vcan0 600#00000000 T
(1779851107.469225) vcan0 601#00000000 T
(1779851107.469246) vcan0 602#8C000000 T
(1779851107.565159) vcan0 603#01 T
(1779851107.565190) vcan0 604#00 T
(1779851107.581170) vcan0 600#00000000 T
(1779851107.581198) vcan0 601#00000000 T
(1779851107.581216) vcan0 602#7F000000 T
(1779851107.581234) vcan0 606#00 T
(1779851107.693199) vcan0 600#00000000 T
(1779851107.693230) vcan0 601#00000000 T
(1779851107.693249) vcan0 602#7F000000 T
(1779851107.773174) vcan0 603#01 T
(1779851107.773200) vcan0 604#00 T
(1779851107.805165) vcan0 600#00000000 T
(1779851107.805196) vcan0 601#00000000 T
(1779851107.805215) vcan0 602#7F000000 T
(1779851107.853201) vcan0 60D#00000000 T
(1779851107.917198) vcan0 600#00000000 T
(1779851107.917226) vcan0 601#00000000 T
(1779851107.917245) vcan0 602#7F000000 T
(1779851107.981207) vcan0 603#00 T
(1779851107.981242) vcan0 604#00 T
(1779851107.981263) vcan0 607#01000000 T
(1779851108.028168) vcan0 600#7F000000 T
(1779851108.028198) vcan0 601#00000000 T
(1779851108.028216) vcan0 602#7F000000 T
(1779851108.092185) vcan0 606#00 T
(1779851108.140159) vcan0 600#FF000000 T
(1779851108.140184) vcan0 601#00000000 T
(1779851108.140199) vcan0 602#7F000000 T
(1779851108.188187) vcan0 603#00 T
(1779851108.188217) vcan0 604#00 T
(1779851108.188236) vcan0 607#01000000 T
(1779851108.252217) vcan0 600#FF000000 T
(1779851108.252247) vcan0 601#00000000 T
(1779851108.252265) vcan0 602#72000000 T
(1779851108.364208) vcan0 600#FF000000 T
(1779851108.364241) vcan0 601#00000000 T
(1779851108.364267) vcan0 602#72000000 T
(1779851108.396229) vcan0 603#00 T
(1779851108.396270) vcan0 604#00 T
(1779851108.396306) vcan0 607#01000000 T
(1779851108.477164) vcan0 600#FF000000 T
(1779851108.477193) vcan0 601#00000000 T
(1779851108.477208) vcan0 602#65000000 T
(1779851108.589233) vcan0 600#FF000000 T
(1779851108.589268) vcan0 601#00000000 T
(1779851108.589294) vcan0 602#59000000 T
(1779851108.605177) vcan0 603#00 T
(1779851108.605207) vcan0 604#00 T
(1779851108.605226) vcan0 606#00 T
(1779851108.605244) vcan0 607#01000000 T
