(1749524293.576645) vcan0 600#00000000
(1749524293.576701) vcan0 602#00000000
(1749524293.576732) vcan0 601#00000000
(1749524293.576762) vcan0 604#00
(1749524293.576789) vcan0 603#00
(1749524293.576815) vcan0 606#00
(1749524293.576845) vcan0 607#00000001
(1749524293.592579) vcan0 600#00000000
(1749524293.592630) vcan0 602#00000000
(1749524293.592660) vcan0 601#00000000
(1749524293.592690) vcan0 604#00
(1749524293.592715) vcan0 603#00
(1749524293.592740) vcan0 606#00
(1749524293.592769) vcan0 607#00000001
(1749524293.608563) vcan0 600#00000000
(1749524293.608613) vcan0 602#00000000
(1749524293.608643) vcan0 601#00000000
(1749524293.608673) vcan0 604#00
(1749524293.608699) vcan0 603#00
(1749524293.608724) vcan0 606#00
(1749524293.608753) vcan0 607#00000001
(1749524293.624562) vcan0 600#00000000
(1749524293.624609) vcan0 602#00000000
(1749524293.624638) vcan0 601#00000000
(1749524293.624666) vcan0 604#00
(1749524293.624692) vcan0 603#00
(1749524293.624717) vcan0 606#00
(1749524293.624746) vcan0 607#00000001
(1749524293.640561) vcan0 600#00000000
(1749524293.640609) vcan0 602#00000000
(1749524293.640638) vcan0 601#00000000
(1749524293.640666) vcan0 604#00
(1749524293.640691) vcan0 603#00
(1749524293.640715) vcan0 606#00
(1749524293.640745) vcan0 607#00000001
(1749524293.656649) vcan0 600#00000000
(1749524293.656721) vcan0 602#00000000
(1749524293.656765) vcan0 601#00000000
(1749524293.656810) vcan0 604#00
(1749524293.656848) vcan0 603#00
(1749524293.656887) vcan0 606#00
(1749524293.656932) vcan0 607#00000001
(1749524293.672566) vcan0 600#00000000
(1749524293.672617) vcan0 602#00000000
(1749524293.672647) vcan0 601#00000000
(1749524293.672676) vcan0 604#00
(1749524293.672704) vcan0 603#00
(1749524293.672730) vcan0 606#00
(1749524293.672760) vcan0 607#00000001
(1749524293.688705) vcan0 600#00000000
(1749524293.688754) vcan0 602#00000000
(1749524293.688782) vcan0 601#00000000
(1749524293.688814) vcan0 604#00
(1749524293.688838) vcan0 603#00
(1749524293.688861) vcan0 606#00
(1749524293.688889) vcan0 607#00000001
(1749524293.704650) vcan0 600#00000000
(1749524293.704706) vcan0 602#00000000
(1749524293.704737) vcan0 601#00000000
(1749524293.704768) vcan0 604#00
(1749524293.704793) vcan0 603#00
(1749524293.704819) vcan0 606#00
(1749524293.704849) vcan0 607#00000001
(1749524293.720664) vcan0 600#00000000
(1749524293.720740) vcan0 602#00000000
(1749524293.720792) vcan0 601#00000000
(1749524293.720842) vcan0 604#00
(1749524293.720887) vcan0 603#00
(1749524293.720933) vcan0 606#00
(1749524293.720984) vcan0 607#00000001
(1749524293.736573) vcan0 600#00000000
(1749524293.736625) vcan0 602#00000000
(1749524293.736656) vcan0 601#00000000
(1749524293.736686) vcan0 604#00
(1749524293.736712) vcan0 603#00
(1749524293.736738) vcan0 606#00
(1749524293.736768) vcan0 607#00000001
(1749524293.752569) vcan0 600#00000000
(1749524293.752622) vcan0 602#00000000
(1749524293.752653) vcan0 601#00000000
(1749524293.752685) vcan0 604#00
(1749524293.752712) vcan0 603#00
(1749524293.752737) vcan0 606#00
(1749524293.752769) vcan0 607#00000001
(1749524293.768566) vcan0 600#00000000
(1749524293.768619) vcan0 602#00000000
(1749524293.768650) vcan0 601#00000000
(1749524293.768680) vcan0 604#00
(1749524293.768706) vcan0 603#00
(1749524293.768732) vcan0 606#00
(1749524293.768762) vcan0 607#00000001
(1749524293.784614) vcan0 600#00000000
(1749524293.784679) vcan0 602#00000000
(1749524293.784710) vcan0 601#00000000
(1749524293.784739) vcan0 604#00
(1749524293.784765) vcan0 603#00
(1749524293.784790) vcan0 606#00
(1749524293.784820) vcan0 607#00000001
(1749524293.799564) vcan0 600#00000000
(1749524293.799617) vcan0 602#00000000
(1749524293.799651) vcan0 601#00000000
(1749524293.799681) vcan0 604#00
(1749524293.799707) vcan0 603#00
(1749524293.799733) vcan0 606#00
(1749524293.799762) vcan0 607#00000001
(1749524293.815693) vcan0 600#00000000
(1749524293.815746) vcan0 602#00000000
(1749524293.815775) vcan0 601#00000000
(1749524293.815818) vcan0 604#00
(1749524293.815843) vcan0 603#00
(1749524293.815868) vcan0 606#00
(1749524293.815903) vcan0 607#00000001
(1749524293.831637) vcan0 600#00000000
(1749524293.831695) vcan0 602#00000000
(1749524293.831724) vcan0 601#00000000
(1749524293.831755) vcan0 604#00
(1749524293.831781) vcan0 603#00
(1749524293.831805) vcan0 606#00
(1749524293.831834) vcan0 607#00000001
(1749524293.847625) vcan0 600#00000000
(1749524293.847705) vcan0 602#00000000
(1749524293.847754) vcan0 601#00000000
(1749524293.847801) vcan0 604#00
(1749524293.847843) vcan0 603#00
(1749524293.847885) vcan0 606#00
(1749524293.847942) vcan0 607#00000001
(1749524293.863641) vcan0 600#00000000
(1749524293.863717) vcan0 602#00000000
(1749524293.863772) vcan0 601#00000000
(1749524293.863818) vcan0 604#00
(1749524293.863858) vcan0 603#00
(1749524293.863901) vcan0 606#00
(1749524293.863952) vcan0 607#00000001
(1749524293.879534) vcan0 600#00000000
(1749524293.879588) vcan0 602#00000000
(1749524293.879618) vcan0 601#00000000
(1749524293.879649) vcan0 604#00
(1749524293.879675) vcan0 603#00
(1749524293.879700) vcan0 606#00
(1749524293.879731) vcan0 607#00000001
(1749524293.895575) vcan0 600#00000000
(1749524293.895632) vcan0 602#00000000
(1749524293.895664) vcan0 601#00000000
(1749524293.895694) vcan0 604#00
(1749524293.895721) vcan0 603#00
(1749524293.895747) vcan0 606#00
(1749524293.895776) vcan0 607#00000001
(1749524293.911559) vcan0 600#00000000
(1749524293.911609) vcan0 602#00000000
(1749524293.911639) vcan0 601#00000000
(1749524293.911669) vcan0 604#00
(1749524293.911696) vcan0 603#00
(1749524293.911722) vcan0 606#00
(1749524293.911752) vcan0 607#00000001
(1749524293.927538) vcan0 600#00000000
(1749524293.927586) vcan0 602#00000000
(1749524293.927615) vcan0 601#00000000
(1749524293.927646) vcan0 604#00
(1749524293.927671) vcan0 603#00
(1749524293.927697) vcan0 606#00
(1749524293.927726) vcan0 607#00000001
(1749524293.943568) vcan0 600#00000000
(1749524293.943622) vcan0 602#00000000
(1749524293.943658) vcan0 601#00000000
(1749524293.943689) vcan0 604#00
(1749524293.943716) vcan0 603#00
(1749524293.943741) vcan0 606#00
(1749524293.943770) vcan0 607#00000001
(1749524293.959608) vcan0 600#00000000
(1749524293.959660) vcan0 602#00000000
(1749524293.959690) vcan0 601#00000000
(1749524293.959720) vcan0 604#00
(1749524293.959746) vcan0 603#00
(1749524293.959771) vcan0 606#00
(1749524293.959801) vcan0 607#00000001
(1749524293.975640) vcan0 600#00000000
(1749524293.975698) vcan0 602#00000000
(1749524293.975733) vcan0 601#00000000
(1749524293.975767) vcan0 604#00
(1749524293.975794) vcan0 603#00
(1749524293.975819) vcan0 606#00
(1749524293.975849) vcan0 607#00000001
(1749524293.991570) vcan0 600#00000000
(1749524293.991622) vcan0 602#00000000
(1749524293.991653) vcan0 601#00000000
(1749524293.991685) vcan0 604#00
(1749524293.991713) vcan0 603#00
(1749524293.991739) vcan0 606#00
(1749524293.991770) vcan0 607#00000001
(1749524294.007579) vcan0 600#00000000
(1749524294.007628) vcan0 602#00000000
(1749524294.007657) vcan0 601#00000000
(1749524294.007686) vcan0 604#00
(1749524294.007711) vcan0 603#00
(1749524294.007736) vcan0 606#00
(1749524294.007765) vcan0 607#00000001
(1749524294.023556) vcan0 600#00000000
(1749524294.023624) vcan0 602#00000000
(1749524294.023656) vcan0 601#00000000
(1749524294.023687) vcan0 604#00
(1749524294.023714) vcan0 603#00
(1749524294.023740) vcan0 606#00
(1749524294.023769) vcan0 607#00000001
(1749524294.039624) vcan0 600#00000000
(1749524294.039676) vcan0 602#00000000
(1749524294.039707) vcan0 601#00000000
(1749524294.039737) vcan0 604#00
(1749524294.039763) vcan0 603#00
(1749524294.039788) vcan0 606#00
(1749524294.039818) vcan0 607#00000001
(1749524294.055514) vcan0 600#00000000
(1749524294.055563) vcan0 602#00000000
(1749524294.055593) vcan0 601#00000000
(1749524294.055623) vcan0 604#00
(1749524294.055647) vcan0 603#00
(1749524294.055672) vcan0 606#00
(1749524294.055700) vcan0 607#00000001
(1749524294.071573) vcan0 600#00000000
(1749524294.071630) vcan0 602#00000000
(1749524294.071662) vcan0 601#00000000
(1749524294.071694) vcan0 604#00
(1749524294.071721) vcan0 603#00
(1749524294.071746) vcan0 606#00
(1749524294.071781) vcan0 607#00000001
(1749524294.087558) vcan0 600#00000000
(1749524294.087611) vcan0 602#00000000
(1749524294.087640) vcan0 601#00000000
(1749524294.087668) vcan0 604#00
(1749524294.087692) vcan0 603#00
(1749524294.087717) vcan0 606#00
(1749524294.087752) vcan0 607#00000001
(1749524294.103616) vcan0 600#00000000
(1749524294.103697) vcan0 602#00000000
(1749524294.103743) vcan0 601#00000000
(1749524294.103788) vcan0 604#00
(1749524294.103828) vcan0 603#00
(1749524294.103873) vcan0 606#00
(1749524294.103918) vcan0 607#00000001
(1749524294.119588) vcan0 600#00000000
(1749524294.119657) vcan0 602#00000000
(1749524294.119702) vcan0 601#00000000
(1749524294.119744) vcan0 604#00
(1749524294.119784) vcan0 603#00
(1749524294.119821) vcan0 606#00
(1749524294.119862) vcan0 607#00000001
(1749524294.135580) vcan0 600#00000000
(1749524294.135646) vcan0 602#00000000
(1749524294.135697) vcan0 601#00000000
(1749524294.135738) vcan0 604#00
(1749524294.135777) vcan0 603#00
(1749524294.135814) vcan0 606#00
(1749524294.135855) vcan0 607#00000001
(1749524294.151558) vcan0 600#00000000
(1749524294.151626) vcan0 602#00000000
(1749524294.151673) vcan0 601#00000000
(1749524294.151714) vcan0 604#00
(1749524294.151752) vcan0 603#00
(1749524294.151789) vcan0 606#00
(1749524294.151838) vcan0 607#00000001
(1749524294.167548) vcan0 600#00000000
(1749524294.167613) vcan0 602#00000000
(1749524294.167655) vcan0 601#00000000
(1749524294.167695) vcan0 604#00
(1749524294.167732) vcan0 603#00
(1749524294.167769) vcan0 606#00
(1749524294.167809) vcan0 607#00000001
(1749524294.183705) vcan0 600#00000000
(1749524294.183756) vcan0 602#00000000
(1749524294.183788) vcan0 601#00000000
(1749524294.183819) vcan0 604#00
(1749524294.183846) vcan0 603#00
(1749524294.183872) vcan0 606#00
(1749524294.183901) vcan0 607#00000001
(1749524294.199613) vcan0 600#00000000
(1749524294.199683) vcan0 602#00000000
(1749524294.199728) vcan0 601#00000000
(1749524294.199770) vcan0 604#00
(1749524294.199808) vcan0 603#00
(1749524294.199845) vcan0 606#00
(1749524294.199887) vcan0 607#00000001
(1749524294.215611) vcan0 600#00000000
(1749524294.215681) vcan0 602#00000000
(1749524294.215734) vcan0 601#00000000
(1749524294.215790) vcan0 604#00
(1749524294.215833) vcan0 603#00
(1749524294.215876) vcan0 606#00
(1749524294.215931) vcan0 607#00000001
(1749524294.231648) vcan0 600#00000000
(1749524294.231706) vcan0 602#00000000
(1749524294.231734) vcan0 601#00000000
(1749524294.231761) vcan0 604#00
(1749524294.231789) vcan0 603#00
(1749524294.231820) vcan0 606#00
(1749524294.231861) vcan0 607#00000001
(1749524294.248625) vcan0 600#00000000
(1749524294.248682) vcan0 602#00000000
(1749524294.248716) vcan0 601#00000000
(1749524294.248747) vcan0 604#00
(1749524294.248774) vcan0 603#00
(1749524294.248800) vcan0 606#00
(1749524294.248831) vcan0 607#00000001
(1749524294.264587) vcan0 600#00000000
(1749524294.264640) vcan0 602#00000000
(1749524294.264672) vcan0 601#00000000
(1749524294.264701) vcan0 604#00
(1749524294.264727) vcan0 603#00
(1749524294.264752) vcan0 606#00
(1749524294.264784) vcan0 607#00000001
(1749524294.280718) vcan0 600#00000000
(1749524294.280791) vcan0 602#00000000
(1749524294.280827) vcan0 601#00000000
(1749524294.280860) vcan0 604#00
(1749524294.280888) vcan0 603#00
(1749524294.280915) vcan0 606#00
(1749524294.280951) vcan0 607#00000001
(1749524294.296635) vcan0 600#00000000
(1749524294.296690) vcan0 602#00000000
(1749524294.296723) vcan0 601#00000000
(1749524294.296755) vcan0 604#00
(1749524294.296780) vcan0 603#00
(1749524294.296806) vcan0 606#00
(1749524294.296838) vcan0 607#00000001
(1749524294.312676) vcan0 600#00000000
(1749524294.312787) vcan0 602#00000000
(1749524294.312819) vcan0 601#00000000
(1749524294.312850) vcan0 604#00
(1749524294.312877) vcan0 603#00
(1749524294.312904) vcan0 606#00
(1749524294.312935) vcan0 607#00000001
(1749524294.328636) vcan0 600#00000000
(1749524294.328694) vcan0 602#00000000
(1749524294.328727) vcan0 601#00000000
(1749524294.328758) vcan0 604#00
(1749524294.328785) vcan0 603#00
(1749524294.328811) vcan0 606#00
(1749524294.328842) vcan0 607#00000001
(1749524294.344625) vcan0 600#00000000
(1749524294.344692) vcan0 602#00000000
(1749524294.344739) vcan0 601#00000000
(1749524294.344851) vcan0 604#00
(1749524294.344890) vcan0 603#00
(1749524294.344924) vcan0 606#00
(1749524294.344957) vcan0 607#00000001
(1749524294.360701) vcan0 600#00000000
(1749524294.360768) vcan0 602#00000000
(1749524294.360802) vcan0 601#00000000
(1749524294.360834) vcan0 604#00
(1749524294.360861) vcan0 603#00
(1749524294.360887) vcan0 606#00
(1749524294.360971) vcan0 607#00000001
(1749524294.376639) vcan0 600#00000000
(1749524294.376698) vcan0 602#00000000
(1749524294.376745) vcan0 601#00000000
(1749524294.376791) vcan0 604#00
(1749524294.376832) vcan0 603#00
(1749524294.376961) vcan0 606#00
(1749524294.377011) vcan0 607#00000001
(1749524294.392622) vcan0 600#00000000
(1749524294.392672) vcan0 602#00000000
(1749524294.392701) vcan0 601#00000000
(1749524294.392731) vcan0 604#00
(1749524294.392757) vcan0 603#00
(1749524294.392782) vcan0 606#00
(1749524294.392812) vcan0 607#00000001
(1749524294.408610) vcan0 600#00000000
(1749524294.408661) vcan0 602#00000000
(1749524294.408693) vcan0 601#00000000
(1749524294.408721) vcan0 604#00
(1749524294.408748) vcan0 603#00
(1749524294.408773) vcan0 606#00
(1749524294.408803) vcan0 607#00000001
(1749524294.424691) vcan0 600#00000000
(1749524294.424762) vcan0 602#00000000
(1749524294.424805) vcan0 601#00000000
(1749524294.424846) vcan0 604#00
(1749524294.424883) vcan0 603#00
(1749524294.424919) vcan0 606#00
(1749524294.424962) vcan0 607#00000001
(1749524294.440690) vcan0 600#00000000
(1749524294.440741) vcan0 602#00000000
(1749524294.440779) vcan0 601#00000000
(1749524294.440810) vcan0 604#00
(1749524294.440835) vcan0 603#00
(1749524294.440861) vcan0 606#00
(1749524294.440891) vcan0 607#00000001
(1749524294.456639) vcan0 600#00000000
(1749524294.456731) vcan0 602#00000000
(1749524294.456782) vcan0 601#00000000
(1749524294.456844) vcan0 604#00
(1749524294.456893) vcan0 603#00
(1749524294.456942) vcan0 606#00
(1749524294.456999) vcan0 607#00000001
(1749524294.472520) vcan0 600#00000000
(1749524294.472590) vcan0 602#00000000
(1749524294.472638) vcan0 601#00000000
(1749524294.472682) vcan0 604#00
(1749524294.472723) vcan0 603#00
(1749524294.472762) vcan0 606#00
(1749524294.472805) vcan0 607#00000001
(1749524294.488533) vcan0 600#00000000
(1749524294.488616) vcan0 602#00000000
(1749524294.488658) vcan0 601#00000000
(1749524294.488704) vcan0 604#00
(1749524294.488745) vcan0 603#00
(1749524294.488786) vcan0 606#00
(1749524294.488829) vcan0 607#00000001
(1749524294.504511) vcan0 600#00000000
(1749524294.504578) vcan0 602#00000000
(1749524294.504630) vcan0 601#00000000
(1749524294.504674) vcan0 604#00
(1749524294.504715) vcan0 603#00
(1749524294.504755) vcan0 606#00
(1749524294.504798) vcan0 607#00000001
(1749524294.520523) vcan0 600#00000000
(1749524294.520590) vcan0 602#00000000
(1749524294.520637) vcan0 601#00000000
(1749524294.520680) vcan0 604#00
(1749524294.520721) vcan0 603#00
(1749524294.520761) vcan0 606#00
(1749524294.520804) vcan0 607#00000001
(1749524294.536510) vcan0 600#00000000
(1749524294.536578) vcan0 602#00000000
(1749524294.536626) vcan0 601#00000000
(1749524294.536670) vcan0 604#00
(1749524294.536713) vcan0 603#00
(1749524294.536752) vcan0 606#00
(1749524294.536795) vcan0 607#00000001
(1749524294.552496) vcan0 600#00000000
(1749524294.552555) vcan0 602#00000000
(1749524294.552595) vcan0 601#00000000
(1749524294.552638) vcan0 604#00
(1749524294.552678) vcan0 603#00
(1749524294.552717) vcan0 606#00
(1749524294.552756) vcan0 607#00000001
(1749524294.568524) vcan0 600#00000000
(1749524294.568597) vcan0 602#00000000
(1749524294.568641) vcan0 601#00000000
(1749524294.568682) vcan0 604#00
(1749524294.568721) vcan0 603#00
(1749524294.568757) vcan0 606#00
(1749524294.568797) vcan0 607#00000001
(1749524294.584549) vcan0 600#00000000
(1749524294.584613) vcan0 602#00000000
(1749524294.584657) vcan0 601#00000000
(1749524294.584698) vcan0 604#00
(1749524294.584737) vcan0 603#00
(1749524294.584775) vcan0 606#00
(1749524294.584815) vcan0 607#00000001
(1749524294.600504) vcan0 600#00000000
(1749524294.600566) vcan0 602#00000000
(1749524294.600613) vcan0 601#00000000
(1749524294.600655) vcan0 604#00
(1749524294.600695) vcan0 603#00
(1749524294.600734) vcan0 606#00
(1749524294.600773) vcan0 607#00000001
(1749524294.617755) vcan0 600#00000000
(1749524294.617814) vcan0 602#00000000
(1749524294.617849) vcan0 601#00000000
(1749524294.617881) vcan0 604#00
(1749524294.617908) vcan0 603#00
(1749524294.617933) vcan0 606#00
(1749524294.617965) vcan0 607#00000001
(1749524294.632809) vcan0 600#00000000
(1749524294.632864) vcan0 602#00000000
(1749524294.632907) vcan0 601#00000000
(1749524294.632939) vcan0 604#00
(1749524294.632971) vcan0 603#00
(1749524294.633007) vcan0 606#00
(1749524294.633052) vcan0 607#00000001
(1749524294.648717) vcan0 600#00000000
(1749524294.648771) vcan0 602#00000000
(1749524294.648805) vcan0 601#00000000
(1749524294.648838) vcan0 604#00
(1749524294.648866) vcan0 603#00
(1749524294.648893) vcan0 606#00
(1749524294.648924) vcan0 607#00000001
(1749524294.664629) vcan0 600#00000000
(1749524294.664716) vcan0 602#00000000
(1749524294.664765) vcan0 601#00000000
(1749524294.664812) vcan0 604#00
(1749524294.664855) vcan0 603#00
(1749524294.664896) vcan0 606#00
(1749524294.664943) vcan0 607#00000001
(1749524294.680667) vcan0 600#00000000
(1749524294.680757) vcan0 602#00000000
(1749524294.680813) vcan0 601#00000000
(1749524294.680871) vcan0 604#00
(1749524294.680920) vcan0 603#00
(1749524294.680966) vcan0 606#00
(1749524294.681017) vcan0 607#00000001
(1749524294.696536) vcan0 600#00000000
(1749524294.696592) vcan0 602#00000000
(1749524294.696624) vcan0 601#00000000
(1749524294.696658) vcan0 604#00
(1749524294.696685) vcan0 603#00
(1749524294.696713) vcan0 606#00
(1749524294.696745) vcan0 607#00000001
(1749524294.712502) vcan0 600#00000000
(1749524294.712555) vcan0 602#00000000
(1749524294.712587) vcan0 601#00000000
(1749524294.712620) vcan0 604#00
(1749524294.712648) vcan0 603#00
(1749524294.712675) vcan0 606#00
(1749524294.712707) vcan0 607#00000001
(1749524294.728578) vcan0 600#00000000
(1749524294.728655) vcan0 602#00000000
(1749524294.728699) vcan0 601#00000000
(1749524294.728745) vcan0 604#00
(1749524294.728784) vcan0 603#00
(1749524294.728822) vcan0 606#00
(1749524294.728866) vcan0 607#00000001
(1749524294.744500) vcan0 600#00000000
(1749524294.744551) vcan0 602#00000000
(1749524294.744582) vcan0 601#00000000
(1749524294.744612) vcan0 604#00
(1749524294.744640) vcan0 603#00
(1749524294.744667) vcan0 606#00
(1749524294.744698) vcan0 607#00000001
(1749524294.760481) vcan0 600#00000000
(1749524294.760530) vcan0 602#00000000
(1749524294.760561) vcan0 601#00000000
(1749524294.760598) vcan0 604#00
(1749524294.760626) vcan0 603#00
(1749524294.760653) vcan0 606#00
(1749524294.760684) vcan0 607#00000001
(1749524294.776584) vcan0 600#00000000
(1749524294.776660) vcan0 602#00000000
(1749524294.776707) vcan0 601#00000000
(1749524294.776753) vcan0 604#00
(1749524294.776794) vcan0 603#00
(1749524294.776834) vcan0 606#00
(1749524294.776880) vcan0 607#00000001
(1749524294.791544) vcan0 600#00000000
(1749524294.791598) vcan0 602#00000000
(1749524294.791629) vcan0 601#00000000
(1749524294.791661) vcan0 604#00
(1749524294.791689) vcan0 603#00
(1749524294.791716) vcan0 606#00
(1749524294.791748) vcan0 607#00000001
(1749524294.807985) vcan0 600#00000000
(1749524294.808051) vcan0 602#00000000
(1749524294.808119) vcan0 601#00000000
(1749524294.808153) vcan0 604#00
(1749524294.808182) vcan0 603#00
(1749524294.808209) vcan0 606#00
(1749524294.808240) vcan0 607#00000001
(1749524294.823507) vcan0 600#00000000
(1749524294.823563) vcan0 602#00000000
(1749524294.823595) vcan0 601#00000000
(1749524294.823625) vcan0 604#00
(1749524294.823651) vcan0 603#00
(1749524294.823678) vcan0 606#00
(1749524294.823710) vcan0 607#00000001
(1749524294.839533) vcan0 600#00000000
(1749524294.839596) vcan0 602#00000000
(1749524294.839634) vcan0 601#00000000
(1749524294.839669) vcan0 604#00
(1749524294.839698) vcan0 603#00
(1749524294.839726) vcan0 606#00
(1749524294.839759) vcan0 607#00000001
(1749524294.855543) vcan0 600#00000000
(1749524294.855603) vcan0 602#00000000
(1749524294.855637) vcan0 601#00000000
(1749524294.855674) vcan0 604#00
(1749524294.855702) vcan0 603#00
(1749524294.855727) vcan0 606#00
(1749524294.855757) vcan0 607#00000001
(1749524294.871551) vcan0 600#00000000
(1749524294.871631) vcan0 602#00000000
(1749524294.871682) vcan0 601#00000000
(1749524294.871717) vcan0 604#00
(1749524294.871745) vcan0 603#00
(1749524294.871773) vcan0 606#00
(1749524294.871805) vcan0 607#00000001
(1749524294.887636) vcan0 600#00000000
(1749524294.887727) vcan0 602#00000000
(1749524294.887776) vcan0 601#00000000
(1749524294.887823) vcan0 604#00
(1749524294.887864) vcan0 603#00
(1749524294.887906) vcan0 606#00
(1749524294.887958) vcan0 607#00000001
(1749524294.903589) vcan0 600#00000000
(1749524294.903685) vcan0 602#00000000
(1749524294.903732) vcan0 601#00000000
(1749524294.903778) vcan0 604#00
(1749524294.903823) vcan0 603#00
(1749524294.903864) vcan0 606#00
(1749524294.903914) vcan0 607#00000001
(1749524294.919556) vcan0 600#00000000
(1749524294.919627) vcan0 602#00000000
(1749524294.919670) vcan0 601#00000000
(1749524294.919713) vcan0 604#00
(1749524294.919752) vcan0 603#00
(1749524294.919791) vcan0 606#00
(1749524294.919835) vcan0 607#00000001
(1749524294.935483) vcan0 600#00000000
(1749524294.935531) vcan0 602#00000000
(1749524294.935561) vcan0 601#00000000
(1749524294.935590) vcan0 604#00
(1749524294.935616) vcan0 603#00
(1749524294.935642) vcan0 606#00
(1749524294.935671) vcan0 607#00000001
(1749524294.951603) vcan0 600#00000000
(1749524294.951654) vcan0 602#00000000
(1749524294.951707) vcan0 601#00000000
(1749524294.951752) vcan0 604#00
(1749524294.951803) vcan0 603#00
(1749524294.951835) vcan0 606#00
(1749524294.951865) vcan0 607#00000001
(1749524294.967484) vcan0 600#00000000
(1749524294.967538) vcan0 602#00000000
(1749524294.967570) vcan0 601#00000000
(1749524294.967601) vcan0 604#00
(1749524294.967626) vcan0 603#00
(1749524294.967651) vcan0 606#00
(1749524294.967682) vcan0 607#00000001
(1749524294.983474) vcan0 600#00000000
(1749524294.983524) vcan0 602#00000000
(1749524294.983554) vcan0 601#00000000
(1749524294.983585) vcan0 604#00
(1749524294.983611) vcan0 603#00
(1749524294.983637) vcan0 606#00
(1749524294.983665) vcan0 607#00000001
(1749524294.999525) vcan0 60D#00000040
(1749524294.999587) vcan0 600#00000000
(1749524294.999619) vcan0 602#00000000
(1749524294.999648) vcan0 601#00000000
(1749524294.999677) vcan0 604#00
(1749524294.999703) vcan0 603#01
(1749524294.999727) vcan0 606#00
(1749524294.999755) vcan0 607#FFFFFFFF
(1749524295.015491) vcan0 600#00000000
(1749524295.015542) vcan0 602#00000000
(1749524295.015574) vcan0 601#00000000
(1749524295.015604) vcan0 604#00
(1749524295.015629) vcan0 603#01
(1749524295.015654) vcan0 606#00
(1749524295.015683) vcan0 607#FFFFFFFF
(1749524295.031464) vcan0 600#00000000
(1749524295.031515) vcan0 602#00000000
(1749524295.031543) vcan0 601#00000000
(1749524295.031573) vcan0 604#00
(1749524295.031599) vcan0 603#01
(1749524295.031625) vcan0 606#00
(1749524295.031656) vcan0 607#FFFFFFFF
(1749524295.047459) vcan0 600#00000000
(1749524295.047521) vcan0 602#00000000
(1749524295.047551) vcan0 601#00000000
(1749524295.047581) vcan0 604#00
(1749524295.047609) vcan0 603#01
(1749524295.047634) vcan0 606#00
(1749524295.047662) vcan0 607#FFFFFFFF
(1749524295.063573) vcan0 600#00000000
(1749524295.063636) vcan0 602#00000000
(1749524295.063669) vcan0 601#00000000
(1749524295.063702) vcan0 604#00
(1749524295.063728) vcan0 603#01
(1749524295.063754) vcan0 606#00
(1749524295.063786) vcan0 607#FFFFFFFF
(1749524295.079601) vcan0 600#3DCCCCCD
(1749524295.079650) vcan0 602#00000000
(1749524295.079681) vcan0 601#00000000
(1749524295.079710) vcan0 604#00
(1749524295.079736) vcan0 603#01
(1749524295.079761) vcan0 606#00
(1749524295.079794) vcan0 607#FFFFFFFF
(1749524295.095674) vcan0 600#3E4CCCCD
(1749524295.095733) vcan0 602#00000000
(1749524295.095764) vcan0 601#00000000
(1749524295.095794) vcan0 604#00
(1749524295.095828) vcan0 603#01
(1749524295.095881) vcan0 606#00
(1749524295.095925) vcan0 607#FFFFFFFF
(1749524295.111458) vcan0 600#3E99999A
(1749524295.111508) vcan0 602#00000000
(1749524295.111537) vcan0 601#00000000
(1749524295.111564) vcan0 604#00
(1749524295.111588) vcan0 603#01
(1749524295.111612) vcan0 606#00
(1749524295.111641) vcan0 607#FFFFFFFF
(1749524295.127461) vcan0 600#3ECCCCCD
(1749524295.127510) vcan0 602#00000000
(1749524295.127540) vcan0 601#00000000
(1749524295.127568) vcan0 604#00
(1749524295.127594) vcan0 603#01
(1749524295.127623) vcan0 606#00
(1749524295.127654) vcan0 607#FFFFFFFF
(1749524295.143540) vcan0 600#3F000000
(1749524295.143612) vcan0 602#00000000
(1749524295.143657) vcan0 601#00000000
(1749524295.143699) vcan0 604#00
(1749524295.143740) vcan0 603#01
(1749524295.143781) vcan0 606#00
(1749524295.143824) vcan0 607#FFFFFFFF
(1749524295.159482) vcan0 600#3F19999A
(1749524295.159541) vcan0 602#00000000
(1749524295.159573) vcan0 601#00000000
(1749524295.159605) vcan0 604#00
(1749524295.159631) vcan0 603#01
(1749524295.159655) vcan0 606#00
(1749524295.159685) vcan0 607#FFFFFFFF
(1749524295.175569) vcan0 600#3F333334
(1749524295.175639) vcan0 602#00000000
(1749524295.175680) vcan0 601#00000000
(1749524295.175729) vcan0 604#00
(1749524295.175771) vcan0 603#01
(1749524295.175805) vcan0 606#00
(1749524295.175845) vcan0 607#FFFFFFFF
(1749524295.191536) vcan0 600#3F4CCCCE
(1749524295.191603) vcan0 602#00000000
(1749524295.191681) vcan0 601#00000000
(1749524295.191723) vcan0 604#00
(1749524295.191759) vcan0 603#01
(1749524295.191794) vcan0 606#00
(1749524295.191836) vcan0 607#FFFFFFFF
(1749524295.207467) vcan0 600#3F666668
(1749524295.207524) vcan0 602#00000000
(1749524295.207555) vcan0 601#00000000
(1749524295.207586) vcan0 604#00
(1749524295.207613) vcan0 603#01
(1749524295.207639) vcan0 606#00
(1749524295.207669) vcan0 607#FFFFFFFF
(1749524295.223455) vcan0 600#3F800000
(1749524295.223506) vcan0 602#00000000
(1749524295.223534) vcan0 601#00000000
(1749524295.223562) vcan0 604#00
(1749524295.223587) vcan0 603#01
(1749524295.223611) vcan0 606#00
(1749524295.223643) vcan0 607#FFFFFFFF
(1749524295.239627) vcan0 600#3F800000
(1749524295.239682) vcan0 602#00000000
(1749524295.239711) vcan0 601#00000000
(1749524295.239740) vcan0 604#00
(1749524295.239766) vcan0 603#01
(1749524295.239793) vcan0 606#00
(1749524295.239824) vcan0 607#FFFFFFFF
(1749524295.256568) vcan0 600#3F800000
(1749524295.256649) vcan0 602#00000000
(1749524295.256701) vcan0 601#00000000
(1749524295.256751) vcan0 604#00
(1749524295.256794) vcan0 603#01
(1749524295.256838) vcan0 606#00
(1749524295.256891) vcan0 607#FFFFFFFF
(1749524295.272526) vcan0 600#3F800000
(1749524295.272592) vcan0 602#00000000
(1749524295.272639) vcan0 601#00000000
(1749524295.272682) vcan0 604#00
(1749524295.272718) vcan0 603#01
(1749524295.272755) vcan0 606#00
(1749524295.272798) vcan0 607#FFFFFFFF
(1749524295.288528) vcan0 600#3F800000
(1749524295.288605) vcan0 602#00000000
(1749524295.288648) vcan0 601#00000000
(1749524295.288688) vcan0 604#00
(1749524295.288734) vcan0 603#01
(1749524295.288769) vcan0 606#00
(1749524295.288812) vcan0 607#FFFFFFFF
(1749524295.304490) vcan0 600#3F800000
(1749524295.304555) vcan0 602#00000000
(1749524295.304597) vcan0 601#00000000
(1749524295.304641) vcan0 604#00
(1749524295.304681) vcan0 603#01
(1749524295.304719) vcan0 606#00
(1749524295.304761) vcan0 607#FFFFFFFF
(1749524295.320462) vcan0 600#3F800000
(1749524295.320527) vcan0 602#00000000
(1749524295.320567) vcan0 601#00000000
(1749524295.320609) vcan0 604#00
(1749524295.320647) vcan0 603#01
(1749524295.320689) vcan0 606#00
(1749524295.320730) vcan0 607#FFFFFFFF
(1749524295.336576) vcan0 600#3F800000
(1749524295.336660) vcan0 602#3DCCCCCD
(1749524295.336714) vcan0 601#00000000
(1749524295.336769) vcan0 604#00
(1749524295.336813) vcan0 603#01
(1749524295.336857) vcan0 606#00
(1749524295.336906) vcan0 607#FFFFFFFF
(1749524295.352494) vcan0 600#3F800000
(1749524295.352558) vcan0 602#3DCCCCCD
(1749524295.352594) vcan0 601#00000000
(1749524295.352628) vcan0 604#00
(1749524295.352658) vcan0 603#01
(1749524295.352686) vcan0 606#00
(1749524295.352719) vcan0 607#FFFFFFFF
(1749524295.368480) vcan0 600#3F800000
(1749524295.368534) vcan0 602#3DCCCCCD
(1749524295.368565) vcan0 601#00000000
(1749524295.368595) vcan0 604#00
(1749524295.368620) vcan0 603#01
(1749524295.368652) vcan0 606#00
(1749524295.368684) vcan0 607#FFFFFFFF
(1749524295.384471) vcan0 600#3F800000
(1749524295.384538) vcan0 602#3DCCCCCD
(1749524295.384569) vcan0 601#00000000
(1749524295.384615) vcan0 604#00
(1749524295.384662) vcan0 603#01
(1749524295.384709) vcan0 606#00
(1749524295.384763) vcan0 607#FFFFFFFF
(1749524295.400564) vcan0 600#3F800000
(1749524295.400643) vcan0 602#3DCCCCCD
(1749524295.400692) vcan0 601#00000000
(1749524295.400739) vcan0 604#00
(1749524295.400783) vcan0 603#01
(1749524295.400824) vcan0 606#00
(1749524295.400868) vcan0 607#FFFFFFFF
(1749524295.416477) vcan0 600#3F800000
(1749524295.416560) vcan0 602#3DCCCCCD
(1749524295.416609) vcan0 601#00000000
(1749524295.416660) vcan0 604#00
(1749524295.416707) vcan0 603#01
(1749524295.416750) vcan0 606#00
(1749524295.416797) vcan0 607#FFFFFFFF
(1749524295.432484) vcan0 600#3F800000
(1749524295.432553) vcan0 602#3DCCCCCD
(1749524295.432603) vcan0 601#00000000
(1749524295.432649) vcan0 604#00
(1749524295.432691) vcan0 603#01
(1749524295.432731) vcan0 606#00
(1749524295.432774) vcan0 607#FFFFFFFF
(1749524295.448478) vcan0 600#3F800000
(1749524295.448556) vcan0 602#3DCCCCCD
(1749524295.448608) vcan0 601#00000000
(1749524295.448654) vcan0 604#00
(1749524295.448695) vcan0 603#01
(1749524295.448736) vcan0 606#00
(1749524295.448780) vcan0 607#FFFFFFFF
(1749524295.464455) vcan0 600#3F800000
(1749524295.464528) vcan0 602#3DCCCCCD
(1749524295.464572) vcan0 601#00000000
(1749524295.464612) vcan0 604#00
(1749524295.464649) vcan0 603#01
(1749524295.464686) vcan0 606#00
(1749524295.464728) vcan0 607#FFFFFFFF
(1749524295.480424) vcan0 600#3F800000
(1749524295.480469) vcan0 602#3DCCCCCD
(1749524295.480495) vcan0 601#00000000
(1749524295.480523) vcan0 604#00
(1749524295.480549) vcan0 603#01
(1749524295.480574) vcan0 606#00
(1749524295.480603) vcan0 607#FFFFFFFF
(1749524295.496498) vcan0 600#3F800000
(1749524295.496551) vcan0 602#3DCCCCCD
(1749524295.496585) vcan0 601#00000000
(1749524295.496620) vcan0 604#00
(1749524295.496658) vcan0 603#01
(1749524295.496698) vcan0 606#00
(1749524295.496744) vcan0 607#FFFFFFFF
(1749524295.512529) vcan0 600#3F800000
(1749524295.512621) vcan0 602#3DCCCCCD
(1749524295.512670) vcan0 601#00000000
(1749524295.512717) vcan0 604#00
(1749524295.512759) vcan0 603#01
(1749524295.512801) vcan0 606#00
(1749524295.512846) vcan0 607#FFFFFFFF
(1749524295.528430) vcan0 600#3F800000
(1749524295.528483) vcan0 602#3E4CCCCD
(1749524295.528511) vcan0 601#00000000
(1749524295.528549) vcan0 604#00
(1749524295.528575) vcan0 603#01
(1749524295.528602) vcan0 606#00
(1749524295.528633) vcan0 607#FFFFFFFF
(1749524295.544564) vcan0 600#3F800000
(1749524295.544629) vcan0 602#3E4CCCCD
(1749524295.544664) vcan0 601#00000000
(1749524295.544697) vcan0 604#00
(1749524295.544725) vcan0 603#01
(1749524295.544751) vcan0 606#00
(1749524295.544782) vcan0 607#FFFFFFFF
(1749524295.560418) vcan0 600#3F800000
(1749524295.560485) vcan0 602#3E4CCCCD
(1749524295.560528) vcan0 601#00000000
(1749524295.560568) vcan0 604#00
(1749524295.560606) vcan0 603#01
(1749524295.560643) vcan0 606#00
(1749524295.560682) vcan0 607#FFFFFFFF
(1749524295.576443) vcan0 600#3F800000
(1749524295.576507) vcan0 602#3E4CCCCD
(1749524295.576547) vcan0 601#00000000
(1749524295.576589) vcan0 604#00
(1749524295.576627) vcan0 603#01
(1749524295.576664) vcan0 606#00
(1749524295.576703) vcan0 607#FFFFFFFF
(1749524295.592436) vcan0 600#3F800000
(1749524295.592500) vcan0 602#3E4CCCCD
(1749524295.592542) vcan0 601#00000000
(1749524295.592581) vcan0 604#00
(1749524295.592618) vcan0 603#01
(1749524295.592653) vcan0 606#00
(1749524295.592692) vcan0 607#FFFFFFFF
(1749524295.608441) vcan0 600#3F800000
(1749524295.608511) vcan0 602#3E4CCCCD
(1749524295.608560) vcan0 601#00000000
(1749524295.608605) vcan0 604#00
(1749524295.608646) vcan0 603#01
(1749524295.608685) vcan0 606#00
(1749524295.608727) vcan0 607#FFFFFFFF
(1749524295.624421) vcan0 600#3F800000
(1749524295.624481) vcan0 602#3E4CCCCD
(1749524295.624533) vcan0 601#00000000
(1749524295.624578) vcan0 604#00
(1749524295.624617) vcan0 603#01
(1749524295.624657) vcan0 606#00
(1749524295.624703) vcan0 607#FFFFFFFF
(1749524295.640472) vcan0 600#3F800000
(1749524295.640533) vcan0 602#3E4CCCCD
(1749524295.640577) vcan0 601#00000000
(1749524295.640619) vcan0 604#00
(1749524295.640658) vcan0 603#01
(1749524295.640697) vcan0 606#00
(1749524295.640738) vcan0 607#FFFFFFFF
(1749524295.656527) vcan0 600#3F800000
(1749524295.656603) vcan0 602#3E4CCCCD
(1749524295.656655) vcan0 601#00000000
(1749524295.656703) vcan0 604#00
(1749524295.656744) vcan0 603#01
(1749524295.656785) vcan0 606#00
(1749524295.656831) vcan0 607#FFFFFFFF
(1749524295.672562) vcan0 600#3F800000
(1749524295.672634) vcan0 602#3E4CCCCD
(1749524295.672673) vcan0 601#00000000
(1749524295.672713) vcan0 604#00
(1749524295.672749) vcan0 603#01
(1749524295.672784) vcan0 606#00
(1749524295.672824) vcan0 607#FFFFFFFF
(1749524295.688437) vcan0 600#3F800000
(1749524295.688500) vcan0 602#3E4CCCCD
(1749524295.688542) vcan0 601#00000000
(1749524295.688584) vcan0 604#00
(1749524295.688624) vcan0 603#01
(1749524295.688663) vcan0 606#00
(1749524295.688704) vcan0 607#FFFFFFFF
(1749524295.704432) vcan0 600#3F800000
(1749524295.704484) vcan0 602#3E4CCCCD
(1749524295.704514) vcan0 601#00000000
(1749524295.704545) vcan0 604#00
(1749524295.704571) vcan0 603#01
(1749524295.704596) vcan0 606#00
(1749524295.704625) vcan0 607#FFFFFFFF
(1749524295.720505) vcan0 600#3F800000
(1749524295.720581) vcan0 602#3E4CCCCD
(1749524295.720623) vcan0 601#00000000
(1749524295.720667) vcan0 604#00
(1749524295.720707) vcan0 603#01
(1749524295.720748) vcan0 606#00
(1749524295.720791) vcan0 607#FFFFFFFF
(1749524295.736639) vcan0 600#3F800000
(1749524295.736714) vcan0 602#3E99999A
(1749524295.736760) vcan0 601#00000000
(1749524295.736821) vcan0 604#00
(1749524295.736861) vcan0 603#01
(1749524295.736896) vcan0 606#00
(1749524295.736943) vcan0 607#FFFFFFFF
(1749524295.752512) vcan0 600#3F800000
(1749524295.752581) vcan0 602#3E99999A
(1749524295.752627) vcan0 601#00000000
(1749524295.752673) vcan0 604#00
(1749524295.752713) vcan0 603#01
(1749524295.752752) vcan0 606#00
(1749524295.752796) vcan0 607#FFFFFFFF
(1749524295.768658) vcan0 600#3F800000
(1749524295.768723) vcan0 602#3E99999A
(1749524295.768768) vcan0 601#00000000
(1749524295.768812) vcan0 604#00
(1749524295.768852) vcan0 603#01
(1749524295.768890) vcan0 606#00
(1749524295.768933) vcan0 607#FFFFFFFF
(1749524295.784498) vcan0 600#3F800000
(1749524295.784577) vcan0 602#3E99999A
(1749524295.784620) vcan0 601#00000000
(1749524295.784678) vcan0 604#00
(1749524295.784716) vcan0 603#01
(1749524295.784756) vcan0 606#00
(1749524295.784802) vcan0 607#FFFFFFFF
(1749524295.799552) vcan0 600#3F800000
(1749524295.799618) vcan0 602#3E99999A
(1749524295.799667) vcan0 601#00000000
(1749524295.799709) vcan0 604#00
(1749524295.799748) vcan0 603#01
(1749524295.799785) vcan0 606#00
(1749524295.799828) vcan0 607#FFFFFFFF
(1749524295.815522) vcan0 600#3F800000
(1749524295.815606) vcan0 602#3E99999A
(1749524295.815663) vcan0 601#00000000
(1749524295.815713) vcan0 604#00
(1749524295.815753) vcan0 603#01
(1749524295.815792) vcan0 606#00
(1749524295.815835) vcan0 607#FFFFFFFF
(1749524295.831491) vcan0 600#3F800000
(1749524295.831553) vcan0 602#3E99999A
(1749524295.831584) vcan0 601#00000000
(1749524295.831642) vcan0 604#00
(1749524295.831669) vcan0 603#01
(1749524295.831694) vcan0 606#00
(1749524295.831723) vcan0 607#FFFFFFFF
(1749524295.847414) vcan0 600#3F800000
(1749524295.847465) vcan0 602#3E99999A
(1749524295.847496) vcan0 601#00000000
(1749524295.847526) vcan0 604#00
(1749524295.847556) vcan0 603#01
(1749524295.847595) vcan0 606#00
(1749524295.847641) vcan0 607#FFFFFFFF
(1749524295.863569) vcan0 600#3F800000
(1749524295.863639) vcan0 602#3E99999A
(1749524295.863684) vcan0 601#00000000
(1749524295.863728) vcan0 604#00
(1749524295.863767) vcan0 603#01
(1749524295.863805) vcan0 606#00
(1749524295.863847) vcan0 607#FFFFFFFF
(1749524295.879444) vcan0 600#3F800000
(1749524295.879496) vcan0 602#3E99999A
(1749524295.879525) vcan0 601#00000000
(1749524295.879554) vcan0 604#00
(1749524295.879578) vcan0 603#01
(1749524295.879601) vcan0 606#00
(1749524295.879630) vcan0 607#FFFFFFFF
(1749524295.895644) vcan0 600#3F800000
(1749524295.895735) vcan0 602#3E99999A
(1749524295.895783) vcan0 601#00000000
(1749524295.895842) vcan0 604#00
(1749524295.895884) vcan0 603#01
(1749524295.895925) vcan0 606#00
(1749524295.895972) vcan0 607#FFFFFFFF
(1749524295.911560) vcan0 600#3F800000
(1749524295.911633) vcan0 602#3E99999A
(1749524295.911683) vcan0 601#00000000
(1749524295.911731) vcan0 604#00
(1749524295.911774) vcan0 603#01
(1749524295.911816) vcan0 606#00
(1749524295.911867) vcan0 607#FFFFFFFF
(1749524295.927406) vcan0 600#3F800000
(1749524295.927461) vcan0 602#3ECCCCCD
(1749524295.927492) vcan0 601#00000000
(1749524295.927523) vcan0 604#00
(1749524295.927550) vcan0 603#01
(1749524295.927575) vcan0 606#00
(1749524295.927604) vcan0 607#FFFFFFFF
(1749524295.943529) vcan0 600#3F800000
(1749524295.943592) vcan0 602#3ECCCCCD
(1749524295.943637) vcan0 601#00000000
(1749524295.943680) vcan0 604#00
(1749524295.943718) vcan0 603#01
(1749524295.943756) vcan0 606#00
(1749524295.943798) vcan0 607#FFFFFFFF
(1749524295.959539) vcan0 600#3F800000
(1749524295.959613) vcan0 602#3ECCCCCD
(1749524295.959665) vcan0 601#00000000
(1749524295.959713) vcan0 604#00
(1749524295.959756) vcan0 603#01
(1749524295.959799) vcan0 606#00
(1749524295.959848) vcan0 607#FFFFFFFF
(1749524295.975499) vcan0 600#3F800000
(1749524295.975555) vcan0 602#3ECCCCCD
(1749524295.975588) vcan0 601#00000000
(1749524295.975619) vcan0 604#00
(1749524295.975646) vcan0 603#01
(1749524295.975672) vcan0 606#00
(1749524295.975703) vcan0 607#FFFFFFFF
(1749524295.991461) vcan0 600#3F800000
(1749524295.991517) vcan0 602#3ECCCCCD
(1749524295.991633) vcan0 601#00000000
(1749524295.991680) vcan0 604#00
(1749524295.991729) vcan0 603#01
(1749524295.991766) vcan0 606#00
(1749524295.991813) vcan0 607#FFFFFFFF
(1749524296.007446) vcan0 600#3F800000
(1749524296.007492) vcan0 602#3ECCCCCD
(1749524296.007520) vcan0 601#00000000
(1749524296.007545) vcan0 604#00
(1749524296.007569) vcan0 603#01
(1749524296.007592) vcan0 606#00
(1749524296.007619) vcan0 607#FFFFFFFF
(1749524296.023388) vcan0 600#3F800000
(1749524296.023437) vcan0 602#3ECCCCCD
(1749524296.023466) vcan0 601#00000000
(1749524296.023494) vcan0 604#00
(1749524296.023520) vcan0 603#01
(1749524296.023545) vcan0 606#00
(1749524296.023575) vcan0 607#FFFFFFFF
(1749524296.039428) vcan0 600#3F800000
(1749524296.039474) vcan0 602#3ECCCCCD
(1749524296.039511) vcan0 601#00000000
(1749524296.039548) vcan0 604#00
(1749524296.039574) vcan0 603#01
(1749524296.039599) vcan0 606#00
(1749524296.039628) vcan0 607#FFFFFFFF
(1749524296.055501) vcan0 600#3F800000
(1749524296.055574) vcan0 602#3ECCCCCD
(1749524296.055625) vcan0 601#00000000
(1749524296.055675) vcan0 604#00
(1749524296.055723) vcan0 603#01
(1749524296.055759) vcan0 606#00
(1749524296.055801) vcan0 607#FFFFFFFF
(1749524296.071561) vcan0 600#3F800000
(1749524296.071627) vcan0 602#3ECCCCCD
(1749524296.071670) vcan0 601#00000000
(1749524296.071713) vcan0 604#00
(1749524296.071752) vcan0 603#01
(1749524296.071790) vcan0 606#00
(1749524296.071833) vcan0 607#FFFFFFFF
(1749524296.087390) vcan0 600#3F800000
(1749524296.087439) vcan0 602#3ECCCCCD
(1749524296.087468) vcan0 601#00000000
(1749524296.087496) vcan0 604#00
(1749524296.087521) vcan0 603#01
(1749524296.087546) vcan0 606#00
(1749524296.087574) vcan0 607#FFFFFFFF
(1749524296.103532) vcan0 600#3F800000
(1749524296.103600) vcan0 602#3ECCCCCD
(1749524296.103646) vcan0 601#00000000
(1749524296.103689) vcan0 604#00
(1749524296.103727) vcan0 603#01
(1749524296.103764) vcan0 606#00
(1749524296.103807) vcan0 607#FFFFFFFF
(1749524296.119408) vcan0 600#3F800000
(1749524296.119456) vcan0 602#3ECCCCCD
(1749524296.119484) vcan0 601#00000000
(1749524296.119514) vcan0 604#00
(1749524296.119540) vcan0 603#01
(1749524296.119565) vcan0 606#00
(1749524296.119593) vcan0 607#FFFFFFFF
(1749524296.135432) vcan0 600#3F800000
(1749524296.135481) vcan0 602#3F000000
(1749524296.135510) vcan0 601#00000000
(1749524296.135539) vcan0 604#00
(1749524296.135564) vcan0 603#01
(1749524296.135589) vcan0 606#00
(1749524296.135619) vcan0 607#FFFFFFFF
(1749524296.151465) vcan0 600#3F800000
(1749524296.151535) vcan0 602#3F000000
(1749524296.151583) vcan0 601#00000000
(1749524296.151629) vcan0 604#00
(1749524296.151669) vcan0 603#01
(1749524296.151708) vcan0 606#00
(1749524296.151753) vcan0 607#FFFFFFFF
(1749524296.167512) vcan0 600#3F800000
(1749524296.167575) vcan0 602#3F000000
(1749524296.167620) vcan0 601#00000000
(1749524296.167662) vcan0 604#00
(1749524296.167700) vcan0 603#01
(1749524296.167738) vcan0 606#00
(1749524296.167781) vcan0 607#FFFFFFFF
(1749524296.183504) vcan0 600#00000000
(1749524296.183573) vcan0 602#3F000000
(1749524296.183619) vcan0 601#00000000
(1749524296.183664) vcan0 604#00
(1749524296.183703) vcan0 603#01
(1749524296.183743) vcan0 606#00
(1749524296.183792) vcan0 607#FFFFFFFF
(1749524296.199463) vcan0 600#00000000
(1749524296.199540) vcan0 602#3F000000
(1749524296.199589) vcan0 601#00000000
(1749524296.199638) vcan0 604#00
(1749524296.199680) vcan0 603#01
(1749524296.199720) vcan0 606#00
(1749524296.199768) vcan0 607#FFFFFFFF
(1749524296.215571) vcan0 600#00000000
(1749524296.215634) vcan0 602#3F000000
(1749524296.215677) vcan0 601#00000000
(1749524296.215715) vcan0 604#00
(1749524296.215751) vcan0 603#01
(1749524296.215787) vcan0 606#00
(1749524296.215828) vcan0 607#FFFFFFFF
(1749524296.231433) vcan0 600#00000000
(1749524296.231485) vcan0 602#00000000
(1749524296.231515) vcan0 601#00000000
(1749524296.231545) vcan0 604#00
(1749524296.231571) vcan0 603#01
(1749524296.231596) vcan0 606#00
(1749524296.231625) vcan0 607#FFFFFFFF
(1749524296.248462) vcan0 600#00000000
(1749524296.248533) vcan0 602#00000000
(1749524296.248577) vcan0 601#00000000
(1749524296.248621) vcan0 604#00
(1749524296.248658) vcan0 603#01
(1749524296.248695) vcan0 606#00
(1749524296.248737) vcan0 607#FFFFFFFF
(1749524296.264470) vcan0 600#00000000
(1749524296.264546) vcan0 602#00000000
(1749524296.264593) vcan0 601#00000000
(1749524296.264638) vcan0 604#00
(1749524296.264683) vcan0 603#01
(1749524296.264725) vcan0 606#00
(1749524296.264772) vcan0 607#FFFFFFFF
(1749524296.280400) vcan0 600#00000000
(1749524296.280454) vcan0 602#00000000
(1749524296.280486) vcan0 601#00000000
(1749524296.280516) vcan0 604#00
(1749524296.280543) vcan0 603#01
(1749524296.280567) vcan0 606#00
(1749524296.280597) vcan0 607#FFFFFFFF
(1749524296.296510) vcan0 600#00000000
(1749524296.296591) vcan0 602#00000000
(1749524296.296640) vcan0 601#00000000
(1749524296.296701) vcan0 604#00
(1749524296.296741) vcan0 603#01
(1749524296.296778) vcan0 606#00
(1749524296.296824) vcan0 607#FFFFFFFF
(1749524296.312455) vcan0 600#00000000
(1749524296.312533) vcan0 602#00000000
(1749524296.312579) vcan0 601#00000000
(1749524296.312623) vcan0 604#00
(1749524296.312664) vcan0 603#01
(1749524296.312703) vcan0 606#00
(1749524296.312749) vcan0 607#FFFFFFFF
(1749524296.328407) vcan0 600#00000000
(1749524296.328469) vcan0 602#00000000
(1749524296.328500) vcan0 601#00000000
(1749524296.328530) vcan0 604#00
(1749524296.328556) vcan0 603#01
(1749524296.328582) vcan0 606#00
(1749524296.328611) vcan0 607#FFFFFFFF
(1749524296.344438) vcan0 600#00000000
(1749524296.344514) vcan0 602#00000000
(1749524296.344551) vcan0 601#00000000
(1749524296.344587) vcan0 604#00
(1749524296.344620) vcan0 603#01
(1749524296.344653) vcan0 606#00
(1749524296.344691) vcan0 607#FFFFFFFF
(1749524296.360364) vcan0 600#00000000
(1749524296.360415) vcan0 602#00000000
(1749524296.360452) vcan0 601#00000000
(1749524296.360495) vcan0 604#00
(1749524296.360535) vcan0 603#01
(1749524296.360576) vcan0 606#00
(1749524296.360622) vcan0 607#FFFFFFFF
(1749524296.376359) vcan0 600#00000000
(1749524296.376409) vcan0 602#00000000
(1749524296.376437) vcan0 601#00000000
(1749524296.376465) vcan0 604#00
(1749524296.376492) vcan0 603#01
(1749524296.376518) vcan0 606#00
(1749524296.376548) vcan0 607#FFFFFFFF
(1749524296.392364) vcan0 600#00000000
(1749524296.392425) vcan0 602#00000000
(1749524296.392453) vcan0 601#00000000
(1749524296.392481) vcan0 604#00
(1749524296.392506) vcan0 603#01
(1749524296.392531) vcan0 606#00
(1749524296.392558) vcan0 607#FFFFFFFF
(1749524296.408389) vcan0 600#00000000
(1749524296.408443) vcan0 602#00000000
(1749524296.408475) vcan0 601#00000000
(1749524296.408507) vcan0 604#00
(1749524296.408535) vcan0 603#01
(1749524296.408560) vcan0 606#00
(1749524296.408590) vcan0 607#FFFFFFFF
(1749524296.424382) vcan0 600#00000000
(1749524296.424439) vcan0 602#00000000
(1749524296.424470) vcan0 601#00000000
(1749524296.424500) vcan0 604#00
(1749524296.424527) vcan0 603#01
(1749524296.424552) vcan0 606#00
(1749524296.424582) vcan0 607#FFFFFFFF
(1749524296.440479) vcan0 600#00000000
(1749524296.440533) vcan0 602#00000000
(1749524296.440577) vcan0 601#00000000
(1749524296.440633) vcan0 604#00
(1749524296.440662) vcan0 603#01
(1749524296.440686) vcan0 606#00
(1749524296.440714) vcan0 607#FFFFFFFF
(1749524296.456367) vcan0 600#00000000
(1749524296.456420) vcan0 602#00000000
(1749524296.456448) vcan0 601#00000000
(1749524296.456475) vcan0 604#00
(1749524296.456499) vcan0 603#01
(1749524296.456524) vcan0 606#00
(1749524296.456553) vcan0 607#FFFFFFFF
(1749524296.472386) vcan0 600#00000000
(1749524296.472435) vcan0 602#00000000
(1749524296.472465) vcan0 601#00000000
(1749524296.472495) vcan0 604#00
(1749524296.472521) vcan0 603#01
(1749524296.472546) vcan0 606#00
(1749524296.472575) vcan0 607#FFFFFFFF
(1749524296.488390) vcan0 600#00000000
(1749524296.488446) vcan0 602#00000000
(1749524296.488479) vcan0 601#00000000
(1749524296.488511) vcan0 604#00
(1749524296.488538) vcan0 603#01
(1749524296.488564) vcan0 606#00
(1749524296.488594) vcan0 607#FFFFFFFF
(1749524296.504385) vcan0 600#00000000
(1749524296.504440) vcan0 602#00000000
(1749524296.504472) vcan0 601#00000000
(1749524296.504503) vcan0 604#00
(1749524296.504529) vcan0 603#01
(1749524296.504553) vcan0 606#00
(1749524296.504582) vcan0 607#FFFFFFFF
(1749524296.520442) vcan0 600#00000000
(1749524296.520493) vcan0 602#00000000
(1749524296.520524) vcan0 601#00000000
(1749524296.520555) vcan0 604#00
(1749524296.520582) vcan0 603#01
(1749524296.520608) vcan0 606#00
(1749524296.520650) vcan0 607#FFFFFFFF
(1749524296.536360) vcan0 600#00000000
(1749524296.536426) vcan0 602#00000000
(1749524296.536460) vcan0 601#00000000
(1749524296.536493) vcan0 604#00
(1749524296.536521) vcan0 603#01
(1749524296.536548) vcan0 606#00
(1749524296.536579) vcan0 607#FFFFFFFF
(1749524296.552406) vcan0 60D#00000000
(1749524296.552472) vcan0 600#00000000
(1749524296.552500) vcan0 602#00000000
(1749524296.552527) vcan0 601#00000000
(1749524296.552555) vcan0 604#00
(1749524296.552579) vcan0 603#00
(1749524296.552603) vcan0 606#00
(1749524296.552630) vcan0 607#00000001
(1749524296.568395) vcan0 600#00000000
(1749524296.568448) vcan0 602#00000000
(1749524296.568489) vcan0 601#00000000
(1749524296.568532) vcan0 604#00
(1749524296.568629) vcan0 603#00
(1749524296.568677) vcan0 606#00
(1749524296.568721) vcan0 607#00000001
(1749524296.584363) vcan0 600#00000000
(1749524296.584435) vcan0 602#00000000
(1749524296.584483) vcan0 601#00000000
(1749524296.584527) vcan0 604#00
(1749524296.584568) vcan0 603#00
(1749524296.584607) vcan0 606#00
(1749524296.584650) vcan0 607#00000001
(1749524296.600365) vcan0 600#00000000
(1749524296.600432) vcan0 602#00000000
(1749524296.600476) vcan0 601#00000000
(1749524296.600518) vcan0 604#00
(1749524296.600556) vcan0 603#00
(1749524296.600593) vcan0 606#00
(1749524296.600632) vcan0 607#00000001
(1749524296.616354) vcan0 600#00000000
(1749524296.616420) vcan0 602#00000000
(1749524296.616461) vcan0 601#00000000
(1749524296.616504) vcan0 604#00
(1749524296.616545) vcan0 603#00
(1749524296.616583) vcan0 606#00
(1749524296.616628) vcan0 607#00000001
(1749524296.632409) vcan0 600#00000000
(1749524296.632477) vcan0 602#00000000
(1749524296.632521) vcan0 601#00000000
(1749524296.632563) vcan0 604#00
(1749524296.632601) vcan0 603#00
(1749524296.632638) vcan0 606#00
(1749524296.632678) vcan0 607#00000001
(1749524296.648368) vcan0 600#00000000
(1749524296.648439) vcan0 602#00000000
(1749524296.648489) vcan0 601#00000000
(1749524296.648540) vcan0 604#00
(1749524296.648582) vcan0 603#00
(1749524296.648621) vcan0 606#00
(1749524296.648662) vcan0 607#00000001
(1749524296.664362) vcan0 600#00000000
(1749524296.664429) vcan0 602#00000000
(1749524296.664479) vcan0 601#00000000
(1749524296.664522) vcan0 604#00
(1749524296.664560) vcan0 603#00
(1749524296.664596) vcan0 606#00
(1749524296.664636) vcan0 607#00000001
(1749524296.680416) vcan0 600#00000000
(1749524296.680515) vcan0 602#00000000
(1749524296.680571) vcan0 601#00000000
(1749524296.680625) vcan0 604#00
(1749524296.680677) vcan0 603#00
(1749524296.680724) vcan0 606#00
(1749524296.680778) vcan0 607#00000001
(1749524296.696354) vcan0 600#00000000
(1749524296.696427) vcan0 602#00000000
(1749524296.696479) vcan0 601#00000000
(1749524296.696525) vcan0 604#00
(1749524296.696565) vcan0 603#00
(1749524296.696603) vcan0 606#00
(1749524296.696643) vcan0 607#00000001
(1749524296.712479) vcan0 600#3DCCCCCD
(1749524296.712550) vcan0 602#00000000
(1749524296.712606) vcan0 601#00000000
(1749524296.712640) vcan0 604#00
(1749524296.712676) vcan0 603#00
(1749524296.712714) vcan0 606#00
(1749524296.712746) vcan0 607#00000001
(1749524296.728333) vcan0 600#3E4CCCCD
(1749524296.728379) vcan0 602#00000000
(1749524296.728410) vcan0 601#00000000
(1749524296.728440) vcan0 604#00
(1749524296.728465) vcan0 603#00
(1749524296.728490) vcan0 606#00
(1749524296.728519) vcan0 607#00000001
(1749524296.744303) vcan0 600#3E99999A
(1749524296.744349) vcan0 602#00000000
(1749524296.744379) vcan0 601#00000000
(1749524296.744408) vcan0 604#00
(1749524296.744433) vcan0 603#00
(1749524296.744459) vcan0 606#00
(1749524296.744488) vcan0 607#00000001
(1749524296.760377) vcan0 600#3ECCCCCD
(1749524296.760434) vcan0 602#00000000
(1749524296.760469) vcan0 601#00000000
(1749524296.760502) vcan0 604#00
(1749524296.760530) vcan0 603#00
(1749524296.760556) vcan0 606#00
(1749524296.760587) vcan0 607#00000001
(1749524296.776366) vcan0 600#3F000000
(1749524296.776420) vcan0 602#00000000
(1749524296.776451) vcan0 601#00000000
(1749524296.776482) vcan0 604#00
(1749524296.776507) vcan0 603#00
(1749524296.776533) vcan0 606#00
(1749524296.776563) vcan0 607#00000001
(1749524296.791384) vcan0 600#3F19999A
(1749524296.791437) vcan0 602#00000000
(1749524296.791467) vcan0 601#00000000
(1749524296.791498) vcan0 604#00
(1749524296.791524) vcan0 603#00
(1749524296.791549) vcan0 606#00
(1749524296.791579) vcan0 607#00000001
(1749524296.807418) vcan0 600#3F333334
(1749524296.807466) vcan0 602#80000000
(1749524296.807496) vcan0 601#00000000
(1749524296.807526) vcan0 604#00
(1749524296.807551) vcan0 603#00
(1749524296.807596) vcan0 606#00
(1749524296.807630) vcan0 607#00000001
(1749524296.823436) vcan0 600#3F4CCCCE
(1749524296.823511) vcan0 602#80000000
(1749524296.823574) vcan0 601#00000000
(1749524296.823629) vcan0 604#00
(1749524296.823675) vcan0 603#00
(1749524296.823720) vcan0 606#00
(1749524296.823770) vcan0 607#00000001
(1749524296.839354) vcan0 600#3F666668
(1749524296.839404) vcan0 602#80000000
(1749524296.839436) vcan0 601#00000000
(1749524296.839465) vcan0 604#00
(1749524296.839490) vcan0 603#00
(1749524296.839515) vcan0 606#00
(1749524296.839544) vcan0 607#00000001
(1749524296.855442) vcan0 600#3F800000
(1749524296.855526) vcan0 602#80000000
(1749524296.855585) vcan0 601#00000000
(1749524296.855639) vcan0 604#00
(1749524296.855684) vcan0 603#00
(1749524296.855728) vcan0 606#00
(1749524296.855777) vcan0 607#00000001
(1749524296.871330) vcan0 600#3F800000
(1749524296.871379) vcan0 602#80000000
(1749524296.871407) vcan0 601#00000000
(1749524296.871435) vcan0 604#00
(1749524296.871459) vcan0 603#00
(1749524296.871489) vcan0 606#00
(1749524296.871518) vcan0 607#00000001
(1749524296.887411) vcan0 600#3F800000
(1749524296.887480) vcan0 602#80000000
(1749524296.887522) vcan0 601#00000000
(1749524296.887577) vcan0 604#00
(1749524296.887611) vcan0 603#00
(1749524296.887644) vcan0 606#00
(1749524296.887683) vcan0 607#00000001
(1749524296.903363) vcan0 600#3F800000
(1749524296.903419) vcan0 602#BDCCCCCD
(1749524296.903451) vcan0 601#00000000
(1749524296.903481) vcan0 604#00
(1749524296.903507) vcan0 603#00
(1749524296.903530) vcan0 606#00
(1749524296.903558) vcan0 607#00000001
(1749524296.919317) vcan0 600#3F800000
(1749524296.919364) vcan0 602#BDCCCCCD
(1749524296.919394) vcan0 601#00000000
(1749524296.919424) vcan0 604#00
(1749524296.919451) vcan0 603#00
(1749524296.919476) vcan0 606#00
(1749524296.919504) vcan0 607#00000001
(1749524296.935324) vcan0 600#3F800000
(1749524296.935372) vcan0 602#BDCCCCCD
(1749524296.935400) vcan0 601#00000000
(1749524296.935428) vcan0 604#00
(1749524296.935454) vcan0 603#00
(1749524296.935479) vcan0 606#00
(1749524296.935508) vcan0 607#00000001
(1749524296.951490) vcan0 600#3F800000
(1749524296.951581) vcan0 602#BDCCCCCD
(1749524296.951640) vcan0 601#00000000
(1749524296.951709) vcan0 604#00
(1749524296.951759) vcan0 603#00
(1749524296.951806) vcan0 606#00
(1749524296.951859) vcan0 607#00000001
(1749524296.967481) vcan0 600#3F800000
(1749524296.967605) vcan0 602#BDCCCCCD
(1749524296.967652) vcan0 601#00000000
(1749524296.967696) vcan0 604#00
(1749524296.967736) vcan0 603#00
(1749524296.967774) vcan0 606#00
(1749524296.967817) vcan0 607#00000001
(1749524296.983407) vcan0 600#3F800000
(1749524296.983479) vcan0 602#BDCCCCCD
(1749524296.983527) vcan0 601#00000000
(1749524296.983573) vcan0 604#00
(1749524296.983612) vcan0 603#00
(1749524296.983652) vcan0 606#00
(1749524296.983696) vcan0 607#00000001
(1749524296.999349) vcan0 600#3F800000
(1749524296.999427) vcan0 602#BDCCCCCD
(1749524296.999473) vcan0 601#00000000
(1749524296.999516) vcan0 604#00
(1749524296.999555) vcan0 603#00
(1749524296.999593) vcan0 606#00
(1749524296.999634) vcan0 607#00000001
(1749524297.015402) vcan0 600#3F800000
(1749524297.015467) vcan0 602#BDCCCCCD
(1749524297.015510) vcan0 601#00000000
(1749524297.015551) vcan0 604#00
(1749524297.015589) vcan0 603#00
(1749524297.015625) vcan0 606#00
(1749524297.015665) vcan0 607#00000001
(1749524297.031372) vcan0 600#3F800000
(1749524297.031437) vcan0 602#BDCCCCCD
(1749524297.031482) vcan0 601#00000000
(1749524297.031523) vcan0 604#00
(1749524297.031561) vcan0 603#00
(1749524297.031598) vcan0 606#00
(1749524297.031639) vcan0 607#00000001
(1749524297.047310) vcan0 600#3F800000
(1749524297.047373) vcan0 602#BDCCCCCD
(1749524297.047416) vcan0 601#00000000
(1749524297.047456) vcan0 604#00
(1749524297.047493) vcan0 603#00
(1749524297.047529) vcan0 606#00
(1749524297.047568) vcan0 607#00000001
(1749524297.063317) vcan0 600#3F800000
(1749524297.063377) vcan0 602#BDCCCCCD
(1749524297.063420) vcan0 601#00000000
(1749524297.063460) vcan0 604#00
(1749524297.063498) vcan0 603#00
(1749524297.063534) vcan0 606#00
(1749524297.063572) vcan0 607#00000001
(1749524297.079346) vcan0 600#3F800000
(1749524297.079416) vcan0 602#BDCCCCCD
(1749524297.079461) vcan0 601#00000000
(1749524297.079502) vcan0 604#00
(1749524297.079540) vcan0 603#00
(1749524297.079577) vcan0 606#00
(1749524297.079617) vcan0 607#00000001
(1749524297.095344) vcan0 600#3F800000
(1749524297.095415) vcan0 602#BE4CCCCD
(1749524297.095452) vcan0 601#00000000
(1749524297.095482) vcan0 604#00
(1749524297.095508) vcan0 603#00
(1749524297.095533) vcan0 606#00
(1749524297.095563) vcan0 607#00000001
(1749524297.111297) vcan0 600#3F800000
(1749524297.111343) vcan0 602#BE4CCCCD
(1749524297.111375) vcan0 601#00000000
(1749524297.111404) vcan0 604#00
(1749524297.111429) vcan0 603#00
(1749524297.111454) vcan0 606#00
(1749524297.111482) vcan0 607#00000001
(1749524297.127399) vcan0 600#3F800000
(1749524297.127476) vcan0 602#BE4CCCCD
(1749524297.127527) vcan0 601#00000000
(1749524297.127573) vcan0 604#00
(1749524297.127615) vcan0 603#00
(1749524297.127657) vcan0 606#00
(1749524297.127701) vcan0 607#00000001
(1749524297.143395) vcan0 600#3F800000
(1749524297.143456) vcan0 602#BE4CCCCD
(1749524297.143488) vcan0 601#00000000
(1749524297.143521) vcan0 604#00
(1749524297.143548) vcan0 603#00
(1749524297.143574) vcan0 606#00
(1749524297.143606) vcan0 607#00000001
(1749524297.159305) vcan0 600#3F800000
(1749524297.159353) vcan0 602#BE4CCCCD
(1749524297.159382) vcan0 601#00000000
(1749524297.159412) vcan0 604#00
(1749524297.159438) vcan0 603#00
(1749524297.159462) vcan0 606#00
(1749524297.159488) vcan0 607#00000001
(1749524297.175317) vcan0 600#3F800000
(1749524297.175365) vcan0 602#BE4CCCCD
(1749524297.175395) vcan0 601#00000000
(1749524297.175423) vcan0 604#00
(1749524297.175448) vcan0 603#00
(1749524297.175473) vcan0 606#00
(1749524297.175501) vcan0 607#00000001
(1749524297.191336) vcan0 600#3F800000
(1749524297.191390) vcan0 602#BE4CCCCD
(1749524297.191422) vcan0 601#00000000
(1749524297.191452) vcan0 604#00
(1749524297.191478) vcan0 603#00
(1749524297.191504) vcan0 606#00
(1749524297.191533) vcan0 607#00000001
(1749524297.207422) vcan0 600#3F800000
(1749524297.207486) vcan0 602#BE4CCCCD
(1749524297.207516) vcan0 601#00000000
(1749524297.207543) vcan0 604#00
(1749524297.207570) vcan0 603#00
(1749524297.207594) vcan0 606#00
(1749524297.207623) vcan0 607#00000001
(1749524297.223284) vcan0 600#3F800000
(1749524297.223330) vcan0 602#BE4CCCCD
(1749524297.223359) vcan0 601#00000000
(1749524297.223386) vcan0 604#00
(1749524297.223410) vcan0 603#00
(1749524297.223435) vcan0 606#00
(1749524297.223464) vcan0 607#00000001
(1749524297.239412) vcan0 600#3F800000
(1749524297.239490) vcan0 602#BE4CCCCD
(1749524297.239537) vcan0 601#00000000
(1749524297.239594) vcan0 604#00
(1749524297.239636) vcan0 603#00
(1749524297.239678) vcan0 606#00
(1749524297.239727) vcan0 607#00000001
(1749524297.256383) vcan0 600#3F800000
(1749524297.256438) vcan0 602#BE4CCCCD
(1749524297.256471) vcan0 601#00000000
(1749524297.256501) vcan0 604#00
(1749524297.256527) vcan0 603#00
(1749524297.256552) vcan0 606#00
(1749524297.256581) vcan0 607#00000001
(1749524297.272351) vcan0 600#3F800000
(1749524297.272413) vcan0 602#BE4CCCCD
(1749524297.272461) vcan0 601#00000000
(1749524297.272501) vcan0 604#00
(1749524297.272538) vcan0 603#00
(1749524297.272575) vcan0 606#00
(1749524297.272614) vcan0 607#00000001
(1749524297.288314) vcan0 600#3F800000
(1749524297.288373) vcan0 602#BE4CCCCD
(1749524297.288415) vcan0 601#00000000
(1749524297.288457) vcan0 604#00
(1749524297.288494) vcan0 603#00
(1749524297.288530) vcan0 606#00
(1749524297.288569) vcan0 607#00000001
(1749524297.304541) vcan0 600#3F800000
(1749524297.304644) vcan0 602#BE99999A
(1749524297.304696) vcan0 601#00000000
(1749524297.304745) vcan0 604#00
(1749524297.304789) vcan0 603#00
(1749524297.304835) vcan0 606#00
(1749524297.304893) vcan0 607#00000001
(1749524297.320410) vcan0 600#3F800000
(1749524297.320463) vcan0 602#BE99999A
(1749524297.320495) vcan0 601#00000000
(1749524297.320525) vcan0 604#00
(1749524297.320551) vcan0 603#00
(1749524297.320577) vcan0 606#00
(1749524297.320610) vcan0 607#00000001
(1749524297.336368) vcan0 600#3F800000
(1749524297.336423) vcan0 602#BE99999A
(1749524297.336458) vcan0 601#00000000
(1749524297.336489) vcan0 604#00
(1749524297.336517) vcan0 603#00
(1749524297.336544) vcan0 606#00
(1749524297.336576) vcan0 607#00000001
(1749524297.352411) vcan0 600#3F800000
(1749524297.352477) vcan0 602#BE99999A
(1749524297.352515) vcan0 601#00000000
(1749524297.352560) vcan0 604#00
(1749524297.352603) vcan0 603#00
(1749524297.352632) vcan0 606#00
(1749524297.352665) vcan0 607#00000001
(1749524297.368418) vcan0 600#3F800000
(1749524297.368475) vcan0 602#BE99999A
(1749524297.368513) vcan0 601#00000000
(1749524297.368546) vcan0 604#00
(1749524297.368575) vcan0 603#00
(1749524297.368604) vcan0 606#00
(1749524297.368636) vcan0 607#00000001
(1749524297.384350) vcan0 600#3F800000
(1749524297.384400) vcan0 602#BE99999A
(1749524297.384432) vcan0 601#00000000
(1749524297.384461) vcan0 604#00
(1749524297.384489) vcan0 603#00
(1749524297.384516) vcan0 606#00
(1749524297.384547) vcan0 607#00000001
(1749524297.400292) vcan0 600#3F800000
(1749524297.400341) vcan0 602#BE99999A
(1749524297.400371) vcan0 601#00000000
(1749524297.400402) vcan0 604#00
(1749524297.400430) vcan0 603#00
(1749524297.400456) vcan0 606#00
(1749524297.400486) vcan0 607#00000001
(1749524297.416353) vcan0 600#3F800000
(1749524297.416403) vcan0 602#BE99999A
(1749524297.416434) vcan0 601#00000000
(1749524297.416466) vcan0 604#00
(1749524297.416494) vcan0 603#00
(1749524297.416521) vcan0 606#00
(1749524297.416550) vcan0 607#00000001
(1749524297.432343) vcan0 600#3F800000
(1749524297.432399) vcan0 602#BE99999A
(1749524297.432432) vcan0 601#00000000
(1749524297.432465) vcan0 604#00
(1749524297.432493) vcan0 603#00
(1749524297.432520) vcan0 606#00
(1749524297.432553) vcan0 607#00000001
(1749524297.448375) vcan0 600#3F800000
(1749524297.448429) vcan0 602#BE99999A
(1749524297.448464) vcan0 601#00000000
(1749524297.448496) vcan0 604#00
(1749524297.448526) vcan0 603#00
(1749524297.448553) vcan0 606#00
(1749524297.448587) vcan0 607#00000001
(1749524297.464295) vcan0 600#3F800000
(1749524297.464344) vcan0 602#BE99999A
(1749524297.464375) vcan0 601#00000000
(1749524297.464405) vcan0 604#00
(1749524297.464432) vcan0 603#00
(1749524297.464459) vcan0 606#00
(1749524297.464490) vcan0 607#00000001
(1749524297.480372) vcan0 600#3F800000
(1749524297.480428) vcan0 602#BE99999A
(1749524297.480460) vcan0 601#00000000
(1749524297.480491) vcan0 604#00
(1749524297.480518) vcan0 603#00
(1749524297.480545) vcan0 606#00
(1749524297.480575) vcan0 607#00000001
(1749524297.496342) vcan0 600#3F800000
(1749524297.496400) vcan0 602#BECCCCCD
(1749524297.496433) vcan0 601#00000000
(1749524297.496466) vcan0 604#00
(1749524297.496494) vcan0 603#00
(1749524297.496522) vcan0 606#00
(1749524297.496553) vcan0 607#00000001
(1749524297.512477) vcan0 600#3F800000
(1749524297.512549) vcan0 602#BECCCCCD
(1749524297.512601) vcan0 601#00000000
(1749524297.512648) vcan0 604#00
(1749524297.512714) vcan0 603#00
(1749524297.512744) vcan0 606#00
(1749524297.512783) vcan0 607#00000001
(1749524297.528333) vcan0 600#3F800000
(1749524297.528386) vcan0 602#BECCCCCD
(1749524297.528419) vcan0 601#00000000
(1749524297.528450) vcan0 604#00
(1749524297.528479) vcan0 603#00
(1749524297.528507) vcan0 606#00
(1749524297.528541) vcan0 607#00000001
(1749524297.544444) vcan0 600#3F800000
(1749524297.544515) vcan0 602#BECCCCCD
(1749524297.544563) vcan0 601#00000000
(1749524297.544601) vcan0 604#00
(1749524297.544630) vcan0 603#00
(1749524297.544664) vcan0 606#00
(1749524297.544710) vcan0 607#00000001
(1749524297.560311) vcan0 600#3F800000
(1749524297.560372) vcan0 602#BECCCCCD
(1749524297.560406) vcan0 601#00000000
(1749524297.560438) vcan0 604#00
(1749524297.560466) vcan0 603#00
(1749524297.560493) vcan0 606#00
(1749524297.560525) vcan0 607#00000001
(1749524297.576465) vcan0 600#3F800000
(1749524297.576518) vcan0 602#BECCCCCD
(1749524297.576550) vcan0 601#00000000
(1749524297.576584) vcan0 604#00
(1749524297.576612) vcan0 603#00
(1749524297.576639) vcan0 606#00
(1749524297.576672) vcan0 607#00000001
(1749524297.592311) vcan0 600#3F800000
(1749524297.592362) vcan0 602#BECCCCCD
(1749524297.592396) vcan0 601#00000000
(1749524297.592428) vcan0 604#00
(1749524297.592455) vcan0 603#00
(1749524297.592482) vcan0 606#00
(1749524297.592514) vcan0 607#00000001
(1749524297.608340) vcan0 600#3F800000
(1749524297.608390) vcan0 602#BECCCCCD
(1749524297.608421) vcan0 601#00000000
(1749524297.608454) vcan0 604#00
(1749524297.608481) vcan0 603#00
(1749524297.608508) vcan0 606#00
(1749524297.608539) vcan0 607#00000001
(1749524297.624340) vcan0 600#3F800000
(1749524297.624410) vcan0 602#BECCCCCD
(1749524297.624461) vcan0 601#00000000
(1749524297.624507) vcan0 604#00
(1749524297.624552) vcan0 603#00
(1749524297.624593) vcan0 606#00
(1749524297.624639) vcan0 607#00000001
(1749524297.640414) vcan0 600#3F800000
(1749524297.640482) vcan0 602#BECCCCCD
(1749524297.640519) vcan0 601#00000000
(1749524297.640557) vcan0 604#00
(1749524297.640599) vcan0 603#00
(1749524297.640632) vcan0 606#00
(1749524297.640665) vcan0 607#00000001
(1749524297.656348) vcan0 600#3F800000
(1749524297.656428) vcan0 602#BECCCCCD
(1749524297.656480) vcan0 601#00000000
(1749524297.656519) vcan0 604#00
(1749524297.656549) vcan0 603#00
(1749524297.656577) vcan0 606#00
(1749524297.656609) vcan0 607#00000001
(1749524297.672379) vcan0 600#3F800000
(1749524297.672461) vcan0 602#BECCCCCD
(1749524297.672503) vcan0 601#00000000
(1749524297.672545) vcan0 604#00
(1749524297.672584) vcan0 603#00
(1749524297.672622) vcan0 606#00
(1749524297.672664) vcan0 607#00000001
(1749524297.688421) vcan0 600#3F800000
(1749524297.688501) vcan0 602#BECCCCCD
(1749524297.688551) vcan0 601#00000000
(1749524297.688611) vcan0 604#00
(1749524297.688652) vcan0 603#00
(1749524297.688694) vcan0 606#00
(1749524297.688740) vcan0 607#00000001
(1749524297.704338) vcan0 600#3F800000
(1749524297.704402) vcan0 602#BF000000
(1749524297.704452) vcan0 601#00000000
(1749524297.704493) vcan0 604#00
(1749524297.704528) vcan0 603#00
(1749524297.704563) vcan0 606#00
(1749524297.704604) vcan0 607#00000001
(1749524297.720349) vcan0 600#3F800000
(1749524297.720398) vcan0 602#BF000000
(1749524297.720429) vcan0 601#00000000
(1749524297.720461) vcan0 604#00
(1749524297.720488) vcan0 603#00
(1749524297.720514) vcan0 606#00
(1749524297.720544) vcan0 607#00000001
(1749524297.736356) vcan0 600#3F800000
(1749524297.736437) vcan0 602#BF000000
(1749524297.736485) vcan0 601#00000000
(1749524297.736533) vcan0 604#00
(1749524297.736574) vcan0 603#00
(1749524297.736617) vcan0 606#00
(1749524297.736664) vcan0 607#00000001
(1749524297.752383) vcan0 600#3F800000
(1749524297.752438) vcan0 602#BF000000
(1749524297.752472) vcan0 601#00000000
(1749524297.752504) vcan0 604#00
(1749524297.752531) vcan0 603#00
(1749524297.752556) vcan0 606#00
(1749524297.752586) vcan0 607#00000001
(1749524297.768302) vcan0 600#3F800000
(1749524297.768352) vcan0 602#BF000000
(1749524297.768381) vcan0 601#00000000
(1749524297.768410) vcan0 604#00
(1749524297.768436) vcan0 603#00
(1749524297.768462) vcan0 606#00
(1749524297.768492) vcan0 607#00000001
(1749524297.784335) vcan0 600#3F800000
(1749524297.784387) vcan0 602#BF000000
(1749524297.784416) vcan0 601#00000000
(1749524297.784445) vcan0 604#00
(1749524297.784470) vcan0 603#00
(1749524297.784494) vcan0 606#00
(1749524297.784522) vcan0 607#00000001
(1749524297.799377) vcan0 600#3F800000
(1749524297.799443) vcan0 602#BF000000
(1749524297.799491) vcan0 601#00000000
(1749524297.799536) vcan0 604#00
(1749524297.799578) vcan0 603#00
(1749524297.799619) vcan0 606#00
(1749524297.799664) vcan0 607#00000001
(1749524297.815397) vcan0 600#3F800000
(1749524297.815457) vcan0 602#BF000000
(1749524297.815495) vcan0 601#00000000
(1749524297.815529) vcan0 604#00
(1749524297.815558) vcan0 603#00
(1749524297.815585) vcan0 606#00
(1749524297.815618) vcan0 607#00000001
(1749524297.831304) vcan0 600#3F800000
(1749524297.831362) vcan0 602#BF000000
(1749524297.831393) vcan0 601#00000000
(1749524297.831423) vcan0 604#00
(1749524297.831451) vcan0 603#00
(1749524297.831478) vcan0 606#00
(1749524297.831510) vcan0 607#00000001
(1749524297.847301) vcan0 600#3F800000
(1749524297.847350) vcan0 602#BF000000
(1749524297.847380) vcan0 601#00000000
(1749524297.847412) vcan0 604#00
(1749524297.847440) vcan0 603#00
(1749524297.847467) vcan0 606#00
(1749524297.847497) vcan0 607#00000001
(1749524297.863432) vcan0 600#3F800000
(1749524297.863549) vcan0 602#BF000000
(1749524297.863608) vcan0 601#00000000
(1749524297.863670) vcan0 604#00
(1749524297.863728) vcan0 603#00
(1749524297.863776) vcan0 606#00
(1749524297.863821) vcan0 607#00000001
(1749524297.879414) vcan0 600#3F800000
(1749524297.879488) vcan0 602#BF000000
(1749524297.879538) vcan0 601#00000000
(1749524297.879586) vcan0 604#00
(1749524297.879629) vcan0 603#00
(1749524297.879671) vcan0 606#00
(1749524297.879717) vcan0 607#00000001
(1749524297.895327) vcan0 600#3F800000
(1749524297.895401) vcan0 602#BF19999A
(1749524297.895447) vcan0 601#00000000
(1749524297.895490) vcan0 604#00
(1749524297.895532) vcan0 603#00
(1749524297.895574) vcan0 606#00
(1749524297.895619) vcan0 607#00000001
(1749524297.911468) vcan0 600#3F800000
(1749524297.911538) vcan0 602#BF19999A
(1749524297.911573) vcan0 601#00000000
(1749524297.911605) vcan0 604#00
(1749524297.911637) vcan0 603#00
(1749524297.911665) vcan0 606#00
(1749524297.911697) vcan0 607#00000001
(1749524297.927493) vcan0 600#3F800000
(1749524297.927623) vcan0 602#BF19999A
(1749524297.927684) vcan0 601#00000000
(1749524297.927734) vcan0 604#00
(1749524297.927779) vcan0 603#00
(1749524297.927837) vcan0 606#00
(1749524297.927891) vcan0 607#00000001
(1749524297.943398) vcan0 600#3F800000
(1749524297.943483) vcan0 602#BF19999A
(1749524297.943531) vcan0 601#00000000
(1749524297.943576) vcan0 604#00
(1749524297.943619) vcan0 603#00
(1749524297.943659) vcan0 606#00
(1749524297.943701) vcan0 607#00000001
(1749524297.959378) vcan0 600#3F800000
(1749524297.959455) vcan0 602#BF19999A
(1749524297.959513) vcan0 601#00000000
(1749524297.959553) vcan0 604#00
(1749524297.959582) vcan0 603#00
(1749524297.959610) vcan0 606#00
(1749524297.959642) vcan0 607#00000001
(1749524297.975269) vcan0 600#3F800000
(1749524297.975321) vcan0 602#BF19999A
(1749524297.975355) vcan0 601#00000000
(1749524297.975387) vcan0 604#00
(1749524297.975414) vcan0 603#00
(1749524297.975442) vcan0 606#00
(1749524297.975473) vcan0 607#00000001
(1749524297.991570) vcan0 600#3F800000
(1749524297.991657) vcan0 602#BF19999A
(1749524297.991704) vcan0 601#00000000
(1749524297.991748) vcan0 604#00
(1749524297.991790) vcan0 603#00
(1749524297.991830) vcan0 606#00
(1749524297.991875) vcan0 607#00000001
(1749524298.007414) vcan0 600#3F800000
(1749524298.007504) vcan0 602#BF19999A
(1749524298.007553) vcan0 601#00000000
(1749524298.007597) vcan0 604#00
(1749524298.007639) vcan0 603#00
(1749524298.007679) vcan0 606#00
(1749524298.007722) vcan0 607#00000001
(1749524298.023509) vcan0 600#3F800000
(1749524298.023602) vcan0 602#BF19999A
(1749524298.023651) vcan0 601#00000000
(1749524298.023703) vcan0 604#00
(1749524298.023742) vcan0 603#00
(1749524298.023771) vcan0 606#00
(1749524298.023805) vcan0 607#00000001
(1749524298.039261) vcan0 600#3F800000
(1749524298.039311) vcan0 602#BF19999A
(1749524298.039342) vcan0 601#00000000
(1749524298.039371) vcan0 604#00
(1749524298.039399) vcan0 603#00
(1749524298.039426) vcan0 606#00
(1749524298.039457) vcan0 607#00000001
(1749524298.055354) vcan0 600#3F800000
(1749524298.055406) vcan0 602#BF19999A
(1749524298.055437) vcan0 601#00000000
(1749524298.055469) vcan0 604#00
(1749524298.055498) vcan0 603#00
(1749524298.055525) vcan0 606#00
(1749524298.055558) vcan0 607#00000001
(1749524298.071381) vcan0 600#3F800000
(1749524298.071456) vcan0 602#BF19999A
(1749524298.071504) vcan0 601#00000000
(1749524298.071551) vcan0 604#00
(1749524298.071596) vcan0 603#00
(1749524298.071636) vcan0 606#00
(1749524298.071683) vcan0 607#00000001
(1749524298.087336) vcan0 600#3F800000
(1749524298.087392) vcan0 602#BF19999A
(1749524298.087427) vcan0 601#00000000
(1749524298.087459) vcan0 604#00
(1749524298.087488) vcan0 603#00
(1749524298.087516) vcan0 606#00
(1749524298.087547) vcan0 607#00000001
(1749524298.103242) vcan0 600#3F800000
(1749524298.103293) vcan0 602#BF333333
(1749524298.103325) vcan0 601#00000000
(1749524298.103357) vcan0 604#00
(1749524298.103386) vcan0 603#00
(1749524298.103413) vcan0 606#00
(1749524298.103444) vcan0 607#00000001
(1749524298.119288) vcan0 600#3F800000
(1749524298.119337) vcan0 602#BF333333
(1749524298.119368) vcan0 601#00000000
(1749524298.119399) vcan0 604#00
(1749524298.119427) vcan0 603#00
(1749524298.119454) vcan0 606#00
(1749524298.119484) vcan0 607#00000001
(1749524298.135392) vcan0 600#3F800000
(1749524298.135497) vcan0 602#BF333333
(1749524298.135551) vcan0 601#00000000
(1749524298.135602) vcan0 604#00
(1749524298.135649) vcan0 603#00
(1749524298.135692) vcan0 606#00
(1749524298.135745) vcan0 607#00000001
(1749524298.151392) vcan0 600#3F800000
(1749524298.151452) vcan0 602#BF333333
(1749524298.151487) vcan0 601#00000000
(1749524298.151519) vcan0 604#00
(1749524298.151548) vcan0 603#00
(1749524298.151575) vcan0 606#00
(1749524298.151607) vcan0 607#00000001
(1749524298.167348) vcan0 600#3F800000
(1749524298.167398) vcan0 602#BF333333
(1749524298.167429) vcan0 601#00000000
(1749524298.167457) vcan0 604#00
(1749524298.167480) vcan0 603#00
(1749524298.167503) vcan0 606#00
(1749524298.167545) vcan0 607#00000001
(1749524298.183579) vcan0 600#3F800000
(1749524298.183662) vcan0 602#BF333333
(1749524298.183712) vcan0 601#00000000
(1749524298.183764) vcan0 604#00
(1749524298.183808) vcan0 603#00
(1749524298.183859) vcan0 606#00
(1749524298.183905) vcan0 607#00000001
(1749524298.199322) vcan0 600#3F800000
(1749524298.199393) vcan0 602#BF333333
(1749524298.199438) vcan0 601#00000000
(1749524298.199485) vcan0 604#00
(1749524298.199527) vcan0 603#00
(1749524298.199568) vcan0 606#00
(1749524298.199615) vcan0 607#00000001
(1749524298.215411) vcan0 600#3F800000
(1749524298.215491) vcan0 602#BF333333
(1749524298.215541) vcan0 601#00000000
(1749524298.215587) vcan0 604#00
(1749524298.215626) vcan0 603#00
(1749524298.215667) vcan0 606#00
(1749524298.215715) vcan0 607#00000001
(1749524298.231358) vcan0 600#3F800000
(1749524298.231432) vcan0 602#BF333333
(1749524298.231476) vcan0 601#00000000
(1749524298.231508) vcan0 604#00
(1749524298.231535) vcan0 603#00
(1749524298.231560) vcan0 606#00
(1749524298.231590) vcan0 607#00000001
(1749524298.248259) vcan0 600#3F800000
(1749524298.248311) vcan0 602#BF333333
(1749524298.248343) vcan0 601#00000000
(1749524298.248373) vcan0 604#00
(1749524298.248399) vcan0 603#00
(1749524298.248424) vcan0 606#00
(1749524298.248454) vcan0 607#00000001
(1749524298.264332) vcan0 600#3F800000
(1749524298.264393) vcan0 602#BF333333
(1749524298.264428) vcan0 601#00000000
(1749524298.264459) vcan0 604#00
(1749524298.264484) vcan0 603#00
